(000.000000) can0 014#01
(000.000527) can0 008#00
(000.000684) can0 055#00
(000.002013) can0 05B#A378
(000.003839) can0 00D#9450
(000.004569) can0 014#01
(000.005830) can0 008#00
(000.006641) can0 055#00
(000.007020) can0 007#00
(000.007997) can0 05B#A378
(000.008129) can0 00D#9450
(000.010238) can0 014#01
(000.010768) can0 008#00
(000.011965) can0 055#00
(000.012938) can0 05B#A378
(000.013067) can0 00D#9450
(000.015209) can0 014#01
(000.016328) can0 008#00
(000.016451) can0 055#00
(000.018451) can0 05B#A378
(000.018579) can0 00D#9450
(000.020489) can0 014#01
(000.021131) can0 008#00
(000.021250) can0 055#00
(000.022348) can0 015#01
(000.022474) can0 056#00
(000.022597) can0 05B#A378
(000.022722) can0 05D#01
(000.023063) can0 00D#9450
(000.023180) can0 016#1C
(000.023301) can0 041#00
(000.023432) can0 00E#9450
(000.024409) can0 014#01
(000.025034) can0 008#00
(000.026490) can0 055#00
(000.027144) can0 05B#A378
(000.027272) can0 00D#9450
(000.029484) can0 014#01
(000.030545) can0 008#00
(000.031607) can0 055#00
(000.032532) can0 05B#A378
(000.032660) can0 00D#9450
(000.034559) can0 014#01
(000.035614) can0 008#00
(000.035735) can0 055#00
(000.037587) can0 05B#A378
(000.037700) can0 056#00
(000.037821) can0 007#00
(000.037946) can0 00D#9450
(000.038114) can0 05C#9F5C0E28
(000.038228) can0 016#1C
(000.038353) can0 05D#01
(000.039862) can0 014#01
(000.040932) can0 008#00
(000.041055) can0 055#00
(000.041959) can0 05B#A378
(000.042869) can0 00D#9450
(000.043915) can0 014#01
(000.044921) can0 008#00
(000.046070) can0 055#00
(000.046711) can0 05B#A378
(000.046849) can0 00D#9450
(000.049200) can0 014#01
(000.050290) can0 008#00
(000.051253) can0 055#00
(000.052364) can0 05B#A378
(000.052493) can0 00D#9450
(000.052609) can0 015#01
(000.054108) can0 014#01
(000.055329) can0 008#00
(000.055450) can0 055#00
(000.057410) can0 05B#A378
(000.057541) can0 00D#9450
(000.059719) can0 014#01
(000.060426) can0 008#00
(000.060543) can0 055#00
(000.061493) can0 05B#A378
(000.062518) can0 00D#9450
(000.063459) can0 014#01
(000.064439) can0 008#00
(000.065431) can0 055#00
(000.066436) can0 05B#A378
(000.066564) can0 00D#9450
(000.067553) can0 016#1C
(000.067675) can0 007#00
(000.067791) can0 041#00
(000.067911) can0 05D#01
(000.068028) can0 056#00
(000.068161) can0 00E#9450
(000.068496) can0 014#01
(000.069540) can0 008#00
(000.070474) can0 055#00
(000.071650) can0 05B#A378
(000.071780) can0 00D#9450
(000.073590) can0 014#01
(000.075726) can0 008#00
(000.075840) can0 055#00
(000.077808) can0 05B#A378
(000.077945) can0 00D#9450
(000.080804) can0 014#01
(000.082946) can0 008#00
(000.083062) can0 007#00
(000.083184) can0 015#01
(000.083298) can0 055#00
(000.083420) can0 056#00
(000.085056) can0 05B#A378
(000.086957) can0 00D#9450
(000.089083) can0 014#01
(000.090123) can0 008#00
(000.090914) can0 055#00
(000.092223) can0 05B#A378
(000.092328) can0 00D#9450
(000.094291) can0 014#01
(000.095322) can0 008#00
(000.096436) can0 055#00
(000.097351) can0 05B#A378
(000.097483) can0 00D#9450
(000.098347) can0 05D#01
(000.098471) can0 016#1C
(000.098583) can0 041#00
(000.098748) can0 05C#9F5C0E28
(000.098865) can0 016#1C
(000.099386) can0 014#01
(000.100484) can0 008#00
(000.100602) can0 055#00
(000.102625) can0 05B#A378
(000.102753) can0 00D#9450
(000.104632) can0 014#01
(000.105532) can0 008#00
(000.105654) can0 055#00
(000.106472) can0 05B#A378
(000.107454) can0 00D#9450
(000.108452) can0 014#01
(000.109638) can0 008#00
(000.110349) can0 055#00
(000.111708) can0 05B#A378
(000.111835) can0 00D#9450
(000.113798) can0 014#01
(000.113915) can0 056#00
(000.114031) can0 007#00
(000.114607) can0 008#00
(000.115632) can0 055#00
(000.116933) can0 05B#A378
(000.117068) can0 00D#9450
(000.118843) can0 014#01
(000.119885) can0 008#00
(000.120004) can0 055#00
(000.122033) can0 05B#A378
(000.122164) can0 00D#9450
(000.124119) can0 014#01
(000.125143) can0 008#00
(000.125264) can0 055#00
(000.126159) can0 05B#A378
(000.127239) can0 00D#9450
(000.128148) can0 014#01
(000.129085) can0 008#00
(000.129235) can0 015#01
(000.129350) can0 05D#01
(000.130331) can0 055#00
(000.131337) can0 05B#A378
(000.131479) can0 00D#9450
(000.133483) can0 014#01
(000.134496) can0 008#00
(000.135874) can0 055#00
(000.136550) can0 05B#A378
(000.136679) can0 00D#9450
(000.138768) can0 014#01
(000.139383) can0 008#00
(000.139504) can0 055#00
(000.141813) can0 05B#A378
(000.141944) can0 00D#9450
(000.144049) can0 014#01
(000.144781) can0 008#00
(000.144900) can0 055#00
(000.145395) can0 016#1C
(000.145513) can0 007#00
(000.145633) can0 041#00
(000.145755) can0 056#00
(000.145883) can0 00E#9450
(000.146013) can0 05B#A378
(000.146131) can0 05D#01
(000.146536) can0 00D#9450
(000.147667) can0 014#01
(000.148658) can0 008#00
(000.149521) can0 055#00
(000.150564) can0 05B#A378
(000.150698) can0 00D#9450
(000.152793) can0 014#01
(000.153513) can0 008#00
(000.154858) can0 055#00
(000.155362) can0 05B#A378
(000.155663) can0 00D#9450
(000.157825) can0 014#01
(000.158480) can0 008#00
(000.158600) can0 055#00
(000.160125) can0 007#00
(000.160242) can0 05D#01
(000.160931) can0 05B#A378
(000.161060) can0 00D#9450
(000.163209) can0 014#01
(000.164354) can0 008#00
(000.164473) can0 055#00
(000.165344) can0 05B#A378
(000.166289) can0 00D#9450
(000.167621) can0 014#01
(000.168719) can0 008#00
(000.169583) can0 055#00
(000.170589) can0 05B#A378
(000.170714) can0 00D#9450
(000.172552) can0 014#01
(000.173701) can0 008#00
(000.174814) can0 055#00
(000.174933) can0 015#01
(000.175054) can0 056#00
(000.175230) can0 05C#9F5C0E28
(000.175342) can0 016#1C
(000.175453) can0 016#1C
(000.175583) can0 041#00
(000.176007) can0 05B#A378
(000.176136) can0 00D#9450
(000.177922) can0 014#01
(000.179486) can0 008#00
(000.179608) can0 055#00
(000.181712) can0 05B#A378
(000.181841) can0 00D#9450
(000.183918) can0 014#01
(000.184801) can0 008#00
(000.184924) can0 055#00
(000.185846) can0 05B#A378
(000.186669) can0 00D#9450
(000.187906) can0 014#01
(000.188737) can0 008#00
(000.189894) can0 055#00
(000.190008) can0 007#00
(000.190130) can0 056#00
(000.190247) can0 05D#01
(000.190970) can0 05B#A378
(000.191107) can0 00D#9450
(000.192905) can0 014#01
(000.193898) can0 008#00
(000.194940) can0 055#00
(000.195987) can0 05B#A378
(000.196112) can0 00D#9450
(000.197980) can0 014#01
(000.198996) can0 008#00
(000.199104) can0 055#00
(000.200956) can0 05B#A378
(000.201081) can0 00D#9450
(000.202956) can0 014#01
(000.203827) can0 008#00
(000.203953) can0 055#00
(000.205038) can0 015#01
(000.205169) can0 05B#A378
(000.205298) can0 00E#9450
(000.205749) can0 00D#9450
(000.206916) can0 014#01
(000.207985) can0 008#00
(000.209021) can0 055#00
(000.209967) can0 05B#A378
(000.210102) can0 00D#9450
(000.212008) can0 014#01
(000.212945) can0 008#00
(000.213963) can0 055#00
(000.214902) can0 05B#A378
(000.215032) can0 00D#9450
(000.216993) can0 014#01
(000.217961) can0 008#00
(000.218083) can0 055#00
(000.219714) can0 05B#A378
(000.219845) can0 00D#9450
(000.221051) can0 007#00
(000.221169) can0 016#1C
(000.221290) can0 041#00
(000.221411) can0 056#00
(000.221576) can0 05C#9F5C0E28
(000.221693) can0 016#1C
(000.221808) can0 014#01
(000.221927) can0 05D#01
(000.223312) can0 008#00
(000.223433) can0 055#00
(000.224371) can0 05B#A378
(000.225572) can0 00D#9450
(000.226366) can0 014#01
(000.227361) can0 008#00
(000.228567) can0 055#00
(000.229447) can0 05B#A378
(000.229575) can0 00D#9450
(000.231610) can0 014#01
(000.232334) can0 008#00
(000.233403) can0 055#00
(000.234439) can0 05B#A378
(000.234566) can0 00D#9450
(000.237270) can0 014#01
(000.237390) can0 008#00
(000.237503) can0 015#01
(000.237626) can0 055#00
(000.237744) can0 056#00
(000.237864) can0 05D#01
(000.237979) can0 007#00
(000.240175) can0 05B#A378
(000.240304) can0 00D#9450
(000.242478) can0 014#01
(000.243735) can0 008#00
(000.243857) can0 055#00
(000.244418) can0 05B#A378
(000.245587) can0 00D#9450
(000.246477) can0 014#01
(000.247505) can0 008#00
(000.248511) can0 055#00
(000.249512) can0 05B#A378
(000.249644) can0 00D#9450
(000.251695) can0 014#01
(000.251810) can0 016#1C
(000.251938) can0 041#00
(000.252887) can0 008#00
(000.253716) can0 055#00
(000.254855) can0 05B#A378
(000.254984) can0 00D#9450
(000.256993) can0 014#01
(000.257973) can0 008#00
(000.258083) can0 055#00
(000.260280) can0 05B#A378
(000.260410) can0 00D#9450
(000.262340) can0 014#01
(000.263438) can0 008#00
(000.263564) can0 055#00
(000.264495) can0 05B#A378
(000.265396) can0 00D#9450
(000.266442) can0 014#01
(000.267488) can0 008#00
(000.267606) can0 056#00
(000.267722) can0 007#00
(000.267853) can0 00E#9450
(000.268000) can0 015#01
(000.268086) can0 05D#01
(000.268253) can0 05C#9F5C0E28
(000.268368) can0 016#1C
(000.268489) can0 055#00
(000.269732) can0 05B#A378
(000.269863) can0 00D#9450
(000.271943) can0 014#01
(000.272581) can0 008#00
(000.274024) can0 055#00
(000.274523) can0 05B#A378
(000.274789) can0 00D#9450
(000.276976) can0 014#01
(000.278027) can0 008#00
(000.278148) can0 055#00
(000.280326) can0 05B#A378
(000.280453) can0 00D#9450
(000.282361) can0 014#01
(000.283127) can0 008#00
(000.283232) can0 055#00
(000.283461) can0 016#1C
(000.283589) can0 041#00
(000.283703) can0 056#00
(000.283826) can0 007#00
(000.283938) can0 05D#01
(000.284070) can0 05B#A378
(000.285152) can0 00D#9450
(000.286094) can0 014#01
(000.286992) can0 008#00
(000.288011) can0 055#00
(000.289061) can0 05B#A378
(000.289192) can0 00D#9450
(000.291301) can0 014#01
(000.291938) can0 008#00
(000.293092) can0 055#00
(000.294002) can0 05B#A378
(000.294134) can0 00D#9450
(000.296317) can0 014#01
(000.296835) can0 008#00
(000.296956) can0 055#00
(000.298333) can0 015#01
(000.298453) can0 056#00
(000.298583) can0 00E#9450
(000.299075) can0 05B#A378
(000.299203) can0 00D#9450
(000.301493) can0 014#01
(000.302168) can0 008#00
(000.302288) can0 055#00
(000.303227) can0 05B#A378
(000.304233) can0 00D#9450
(000.305226) can0 014#01
(000.306309) can0 008#00
(000.307234) can0 055#00
(000.308211) can0 05B#A378
(000.308342) can0 00D#9450
(000.310509) can0 014#01
(000.311262) can0 008#00
(000.312504) can0 055#00
(000.313131) can0 05B#A378
(000.313260) can0 00D#9450
(000.313398) can0 007#00
(000.313514) can0 016#1C
(000.313636) can0 041#00
(000.313754) can0 05D#01
(000.315604) can0 014#01
(000.316197) can0 008#00
(000.316315) can0 055#00
(000.318522) can0 05B#A378
(000.318653) can0 00D#9450
(000.320431) can0 014#01
(000.321246) can0 008#00
(000.321368) can0 055#00
(000.322254) can0 05B#A378
(000.323226) can0 00D#9450
(000.324220) can0 014#01
(000.325218) can0 008#00
(000.326291) can0 055#00
(000.327446) can0 05B#A378
(000.327580) can0 00D#9450
(000.328279) can0 05D#01
(000.328685) can0 007#00
(000.328805) can0 056#00
(000.328971) can0 05C#9F5C0E28
(000.329086) can0 016#1C
(000.329741) can0 014#01
(000.329857) can0 008#00
(000.330749) can0 055#00
(000.331731) can0 05B#A378
(000.331861) can0 00D#9450
(000.333817) can0 014#01
(000.334742) can0 008#00
(000.334862) can0 055#00
(000.337043) can0 05B#A378
(000.337168) can0 00D#9450
(000.339056) can0 014#01
(000.340087) can0 008#00
(000.340205) can0 055#00
(000.341191) can0 05B#A378
(000.342086) can0 00D#9450
(000.343126) can0 014#01
(000.344152) can0 008#00
(000.344278) can0 015#01
(000.344880) can0 055#00
(000.346294) can0 05B#A378
(000.346426) can0 00D#9450
(000.348220) can0 014#01
(000.348978) can0 008#00
(000.350386) can0 055#00
(000.351521) can0 05B#A378
(000.351650) can0 00D#9450
(000.354112) can0 014#01
(000.355120) can0 008#00
(000.355221) can0 055#00
(000.357396) can0 05B#A378
(000.357534) can0 00D#9450
(000.359661) can0 014#01
(000.359775) can0 007#00
(000.359889) can0 016#1C
(000.360013) can0 041#00
(000.360134) can0 056#00
(000.360250) can0 05D#01
(000.360368) can0 008#00
(000.360488) can0 055#00
(000.361105) can0 05B#A378
(000.361840) can0 00D#9450
(000.363273) can0 014#01
(000.363887) can0 008#00
(000.365038) can0 055#00
(000.366056) can0 05B#A378
(000.366187) can0 00D#9450
(000.368305) can0 014#01
(000.368826) can0 008#00
(000.370060) can0 055#00
(000.371005) can0 05B#A378
(000.371148) can0 00D#9450
(000.373263) can0 014#01
(000.373951) can0 008#00
(000.374075) can0 055#00
(000.375045) can0 00E#9450
(000.375161) can0 015#01
(000.375282) can0 056#00
(000.375945) can0 05B#A378
(000.376064) can0 00D#9450
(000.378238) can0 014#01
(000.379010) can0 008#00
(000.379149) can0 055#00
(000.380001) can0 05B#A378
(000.380958) can0 00D#9450
(000.381954) can0 014#01
(000.383214) can0 008#00
(000.383912) can0 055#00
(000.384974) can0 05B#A378
(000.385108) can0 00D#9450
(000.387212) can0 014#01
(000.388008) can0 008#00
(000.389004) can0 055#00
(000.390002) can0 05B#A378
(000.390120) can0 016#1C
(000.390245) can0 00D#9450
(000.390363) can0 007#00
(000.390498) can0 041#00
(000.390652) can0 05C#9F5C0E28
(000.390766) can0 016#1C
(000.390885) can0 05D#01
(000.392075) can0 014#01
(000.393019) can0 008#00
(000.393140) can0 055#00
(000.395253) can0 05B#A378
(000.395384) can0 00D#9450
(000.397281) can0 014#01
(000.397809) can0 008#00
(000.397927) can0 055#00
(000.398877) can0 05B#A378
(000.399958) can0 00D#9450
(000.401157) can0 014#01
(000.401809) can0 008#00
(000.403281) can0 055#00
(000.403783) can0 05B#A378
(000.403914) can0 00D#9450
(000.405342) can0 056#00
(000.405536) can0 015#01
(000.405877) can0 014#01
(000.407065) can0 008#00
(000.407960) can0 055#00
(000.409275) can0 05B#A378
(000.409405) can0 00D#9450
(000.411335) can0 014#01
(000.411825) can0 008#00
(000.412140) can0 055#00
(000.414294) can0 05B#A378
(000.414424) can0 00D#9450
(000.416446) can0 014#01
(000.416996) can0 008#00
(000.417115) can0 055#00
(000.418003) can0 05B#A378
(000.419050) can0 00D#9450
(000.419955) can0 014#01
(000.421062) can0 008#00
(000.421176) can0 007#00
(000.421295) can0 016#1C
(000.421413) can0 041#00
(000.421536) can0 056#00
(000.421663) can0 00E#9450
(000.421784) can0 05D#01
(000.421902) can0 055#00
(000.423116) can0 05B#A378
(000.423253) can0 00D#9450
(000.425413) can0 014#01
(000.426036) can0 008#00
(000.427169) can0 055#00
(000.428140) can0 05B#A378
(000.428270) can0 00D#9450
(000.430312) can0 014#01
(000.431041) can0 008#00
(000.431160) can0 055#00
(000.433470) can0 05B#A378
(000.433599) can0 00D#9450
(000.435462) can0 014#01
(000.435942) can0 008#00
(000.436363) can0 055#00
(000.436533) can0 05C#9F5C0E28
(000.436648) can0 05D#01
(000.436766) can0 007#00
(000.437106) can0 05B#A378
(000.438266) can0 00D#9450
(000.439249) can0 014#01
(000.440463) can0 008#00
(000.441206) can0 055#00
(000.442448) can0 05B#A378
(000.442581) can0 00D#9450
(000.444525) can0 014#01
(000.445195) can0 008#00
(000.446241) can0 055#00
(000.447258) can0 05B#A378
(000.447385) can0 00D#9450
(000.449539) can0 014#01
(000.450671) can0 008#00
(000.450791) can0 055#00
(000.451773) can0 015#01
(000.451891) can0 056#00
(000.452009) can0 016#1C
(000.452394) can0 05B#A378
(000.452525) can0 00D#9450
(000.454761) can0 014#01
(000.456905) can0 008#00
(000.457025) can0 055#00
(000.458916) can0 05B#A378
(000.460907) can0 00D#9450
(000.462985) can0 014#01
(000.464868) can0 008#00
(000.467018) can0 007#00
(000.467144) can0 055#00
(000.467254) can0 016#1C
(000.467379) can0 041#00
(000.467495) can0 05D#01
(000.468018) can0 05B#A378
(000.468145) can0 00D#9450
(000.470104) can0 014#01
(000.471266) can0 008#00
(000.472085) can0 055#00
(000.473181) can0 05B#A378
(000.473311) can0 00D#9450
(000.475300) can0 014#01
(000.476626) can0 008#00
(000.476745) can0 055#00
(000.478742) can0 05B#A378
(000.478870) can0 00D#9450
(000.480604) can0 014#01
(000.481376) can0 008#00
(000.481497) can0 055#00
(000.482594) can0 05B#A378
(000.482705) can0 007#00
(000.482827) can0 056#00
(000.483815) can0 00D#9450
(000.484406) can0 014#01
(000.485718) can0 008#00
(000.487003) can0 055#00
(000.488013) can0 05B#A378
(000.488134) can0 00D#9450
(000.491147) can0 014#01
(000.491335) can0 008#00
(000.492515) can0 055#00
(000.494092) can0 05B#A378
(000.494220) can0 00D#9450
(000.495922) can0 014#01
(000.497075) can0 008#00
(000.497192) can0 055#00
(000.498199) can0 05D#01
(000.498310) can0 007#00
(000.498426) can0 015#01
(000.498558) can0 00E#9450
(000.499607) can0 05B#A378
(000.499738) can0 00D#9450
(000.501518) can0 014#01
(000.502508) can0 008#00
(000.502626) can0 055#00
(000.503674) can0 05B#A378
(000.504590) can0 00D#9450
(000.505698) can0 014#01
(000.506688) can0 008#00
(000.507764) can0 055#00
(000.508616) can0 05B#A378
(000.508748) can0 00D#9450
(000.510730) can0 014#01
(000.511718) can0 008#00
(000.512730) can0 055#00
(000.513752) can0 05D#01
(000.513866) can0 016#1C
(000.513989) can0 041#00
(000.514111) can0 056#00
(000.514241) can0 05B#A378
(000.514368) can0 00D#9450
(000.514537) can0 05C#9F5C0E28
(000.514652) can0 016#1C
(000.516012) can0 014#01
(000.517032) can0 008#00
(000.517156) can0 055#00
(000.519053) can0 05B#A378
(000.519187) can0 00D#9450
(000.521003) can0 014#01
(000.521972) can0 008#00
(000.522096) can0 055#00
(000.522866) can0 05B#A378
(000.524048) can0 00D#9450
(000.524819) can0 014#01
(000.525973) can0 008#00
(000.526872) can0 055#00
(000.528249) can0 05B#A378
(000.528383) can0 00D#9450
(000.528921) can0 007#00
(000.529039) can0 05D#01
(000.530012) can0 014#01
(000.531363) can0 008#00
(000.532167) can0 055#00
(000.533516) can0 05B#A378
(000.533645) can0 00D#9450
(000.535459) can0 014#01
(000.536377) can0 008#00
(000.536498) can0 055#00
(000.539600) can0 05B#A378
(000.539732) can0 00D#9450
(000.541664) can0 014#01
(000.542917) can0 008#00
(000.543036) can0 055#00
(000.543816) can0 05B#A378
(000.544838) can0 015#01
(000.544965) can0 00D#9450
(000.545089) can0 056#00
(000.545742) can0 014#01
(000.546858) can0 008#00
(000.547792) can0 055#00
(000.548895) can0 05B#A378
(000.549021) can0 00D#9450
(000.550959) can0 014#01
(000.551848) can0 008#00
(000.552935) can0 055#00
(000.553880) can0 05B#A378
(000.554007) can0 00D#9450
(000.556065) can0 014#01
(000.556734) can0 008#00
(000.556854) can0 055#00
(000.559023) can0 05B#A378
(000.559157) can0 00D#9450
(000.559949) can0 016#1C
(000.560064) can0 007#00
(000.560185) can0 041#00
(000.560315) can0 00E#9450
(000.560433) can0 05D#01
(000.560695) can0 014#01
(000.562019) can0 008#00
(000.562137) can0 055#00
(000.562757) can0 05B#A378
(000.563886) can0 00D#9450
(000.564854) can0 014#01
(000.566000) can0 008#00
(000.566793) can0 055#00
(000.567805) can0 05B#A378
(000.567940) can0 00D#9450
(000.569973) can0 014#01
(000.570660) can0 008#00
(000.571972) can0 055#00
(000.572752) can0 05B#A378
(000.572886) can0 00D#9450
(000.575148) can0 007#00
(000.575224) can0 014#01
(000.575342) can0 056#00
(000.576505) can0 008#00
(000.576624) can0 055#00
(000.578721) can0 05B#A378
(000.578856) can0 00D#9450
(000.580857) can0 014#01
(000.582001) can0 008#00
(000.582124) can0 055#00
(000.582669) can0 05B#A378
(000.583883) can0 00D#9450
(000.584726) can0 014#01
(000.585949) can0 008#00
(000.586589) can0 055#00
(000.588106) can0 05B#A378
(000.588236) can0 00D#9450
(000.590243) can0 014#01
(000.590742) can0 015#01
(000.590864) can0 008#00
(000.591028) can0 05C#9F5C0E28
(000.591144) can0 016#1C
(000.591262) can0 05D#01
(000.591379) can0 007#00
(000.592612) can0 055#00
(000.593571) can0 05B#A378
(000.593705) can0 00D#9450
(000.595776) can0 014#01
(000.597047) can0 008#00
(000.597167) can0 055#00
(000.599055) can0 05B#A378
(000.599188) can0 00D#9450
(000.601688) can0 014#01
(000.602205) can0 008#00
(000.602323) can0 055#00
(000.603679) can0 05B#A378
(000.604459) can0 00D#9450
(000.605555) can0 014#01
(000.605674) can0 016#1C
(000.605793) can0 041#00
(000.605916) can0 056#00
(000.606031) can0 05D#01
(000.606718) can0 008#00
(000.608413) can0 055#00
(000.609221) can0 05B#A378
(000.609354) can0 00D#9450
(000.611568) can0 014#01
(000.612359) can0 008#00
(000.613327) can0 055#00
(000.614487) can0 05B#A378
(000.614618) can0 00D#9450
(000.616655) can0 014#01
(000.617256) can0 008#00
(000.617376) can0 055#00
(000.619578) can0 05B#A378
(000.619712) can0 00D#9450
(000.620585) can0 007#00
(000.620707) can0 05D#01
(000.621179) can0 014#01
(000.622399) can0 008#00
(000.622518) can0 055#00
(000.623401) can0 05B#A378
(000.624322) can0 00D#9450
(000.625540) can0 014#01
(000.626326) can0 008#00
(000.627499) can0 055#00
(000.628320) can0 05B#A378
(000.628452) can0 00D#9450
(000.630629) can0 014#01
(000.631321) can0 008#00
(000.632511) can0 055#00
(000.633456) can0 05B#A378
(000.633584) can0 00D#9450
(000.635640) can0 014#01
(000.635754) can0 015#01
(000.635877) can0 056#00
(000.636005) can0 00E#9450
(000.636336) can0 008#00
(000.636455) can0 055#00
(000.638357) can0 05B#A378
(000.638493) can0 00D#9450
(000.640490) can0 014#01
(000.641404) can0 008#00
(000.641524) can0 055#00
(000.642387) can0 05B#A378
(000.643612) can0 00D#9450
(000.644464) can0 014#01
(000.645422) can0 008#00
(000.646569) can0 055#00
(000.647446) can0 05B#A378
(000.647575) can0 00D#9450
(000.649330) can0 014#01
(000.650533) can0 008#00
(000.650648) can0 007#00
(000.650764) can0 016#1C
(000.650886) can0 041#00
(000.651005) can0 05D#01
(000.651341) can0 055#00
(000.652629) can0 05B#A378
(000.652759) can0 00D#9450
(000.654461) can0 014#01
(000.655489) can0 008#00
(000.655606) can0 055#00
(000.657632) can0 05B#A378
(000.657762) can0 00D#9450
(000.659748) can0 014#01
(000.661103) can0 008#00
(000.661221) can0 055#00
(000.661699) can0 05B#A378
(000.662810) can0 00D#9450
(000.663843) can0 014#01
(000.664885) can0 008#00
(000.665841) can0 056#00
(000.665958) can0 055#00
(000.666125) can0 05C#9F5C0E28
(000.666241) can0 016#1C
(000.666357) can0 015#01
(000.666954) can0 05B#A378
(000.667115) can0 00D#9450
(000.669071) can0 014#01
(000.670178) can0 008#00
(000.671254) can0 055#00
(000.672844) can0 05B#A378
(000.672974) can0 00D#9450
(000.674968) can0 014#01
(000.675695) can0 008#00
(000.675813) can0 055#00
(000.677697) can0 05B#A378
(000.677829) can0 00D#9450
(000.679976) can0 014#01
(000.680873) can0 008#00
(000.680993) can0 007#00
(000.681106) can0 016#1C
(000.681231) can0 041#00
(000.681348) can0 055#00
(000.681471) can0 056#00
(000.681589) can0 05D#01
(000.681783) can0 05B#A378
(000.682980) can0 00D#9450
(000.683844) can0 014#01
(000.684931) can0 008#00
(000.685881) can0 055#00
(000.687132) can0 05B#A378
(000.687248) can0 00D#9450
(000.689022) can0 014#01
(000.690256) can0 008#00
(000.690971) can0 055#00
(000.692056) can0 05B#A378
(000.692175) can0 00D#9450
(000.694348) can0 014#01
(000.695441) can0 008#00
(000.695553) can0 055#00
(000.696539) can0 00E#9450
(000.697293) can0 05B#A378
(000.697421) can0 00D#9450
(000.699485) can0 014#01
(000.700464) can0 008#00
(000.700576) can0 055#00
(000.701389) can0 05B#A378
(000.702453) can0 00D#9450
(000.703459) can0 014#01
(000.704422) can0 008#00
(000.705444) can0 055#00
(000.706507) can0 05B#A378
(000.706640) can0 00D#9450
(000.708630) can0 014#01
(000.709971) can0 008#00
(000.710637) can0 055#00
(000.711822) can0 05B#A378
(000.711934) can0 007#00
(000.712083) can0 00D#9450
(000.712183) can0 015#01
(000.712323) can0 056#00
(000.712477) can0 05C#9F5C0E28
(000.712589) can0 05D#01
(000.712714) can0 05D#01
(000.713682) can0 014#01
(000.714772) can0 008#00
(000.714894) can0 055#00
(000.716984) can0 05B#A378
(000.717112) can0 00D#9450
(000.719127) can0 014#01
(000.719744) can0 008#00
(000.719864) can0 055#00
(000.720800) can0 05B#A378
(000.722164) can0 00D#9450
(000.722814) can0 014#01
(000.723914) can0 008#00
(000.724970) can0 055#00
(000.725998) can0 05B#A378
(000.726127) can0 00D#9450
(000.727050) can0 016#1C
(000.727165) can0 007#00
(000.727286) can0 041#00
(000.727406) can0 016#1C
(000.727757) can0 014#01
(000.728882) can0 008#00
(000.729815) can0 055#00
(000.730923) can0 05B#A378
(000.731051) can0 00D#9450
(000.732903) can0 014#01
(000.733845) can0 008#00
(000.733964) can0 055#00
(000.736565) can0 05B#A378
(000.736698) can0 00D#9450
(000.738469) can0 014#01
(000.739386) can0 008#00
(000.739503) can0 055#00
(000.740509) can0 05B#A378
(000.741291) can0 00D#9450
(000.742223) can0 014#01
(000.742343) can0 056#00
(000.742489) can0 05D#01
(000.743268) can0 008#00
(000.744301) can0 055#00
(000.745333) can0 05B#A378
(000.745464) can0 00D#9450
(000.747548) can0 014#01
(000.748704) can0 008#00
(000.749570) can0 055#00
(000.750692) can0 05B#A378
(000.750820) can0 00D#9450
(000.752758) can0 014#01
(000.754881) can0 008#00
(000.755001) can0 055#00
(000.757765) can0 05B#A378
(000.757895) can0 00D#9450
(000.758010) can0 007#00
(000.758125) can0 015#01
(000.758243) can0 05D#01
(000.760892) can0 014#01
(000.762872) can0 008#00
(000.762992) can0 055#00
(000.763469) can0 05B#A378
(000.764614) can0 00D#9450
(000.765605) can0 014#01
(000.766575) can0 008#00
(000.767633) can0 055#00
(000.768702) can0 05B#A378
(000.768834) can0 00D#9450
(000.770750) can0 014#01
(000.771701) can0 008#00
(000.772465) can0 055#00
(000.772654) can0 007#00
(000.772827) can0 016#1C
(000.772945) can0 041#00
(000.773067) can0 056#00
(000.773196) can0 00E#9450
(000.774236) can0 05B#A378
(000.774366) can0 00D#9450
(000.776086) can0 014#01
(000.777054) can0 008#00
(000.777175) can0 055#00
(000.779443) can0 05B#A378
(000.779571) can0 00D#9450
(000.781191) can0 014#01
(000.782325) can0 008#00
(000.782449) can0 055#00
(000.783284) can0 05B#A378
(000.784381) can0 00D#9450
(000.785298) can0 014#01
(000.786238) can0 008#00
(000.787548) can0 055#00
(000.788125) can0 05B#A378
(000.788254) can0 00D#9450
(000.788370) can0 05D#01
(000.788488) can0 007#00
(000.788652) can0 05C#9F5C0E28
(000.788770) can0 016#1C
(000.788886) can0 05D#01
(000.790556) can0 014#01
(000.791132) can0 008#00
(000.792406) can0 055#00
(000.793352) can0 05B#A378
(000.793481) can0 00D#9450
(000.795460) can0 014#01
(000.796264) can0 008#00
(000.796388) can0 055#00
(000.798393) can0 05B#A378
(000.798524) can0 00D#9450
(000.800530) can0 014#01
(000.801588) can0 008#00
(000.801710) can0 055#00
(000.802782) can0 05B#A378
(000.803800) can0 00D#9450
(000.803914) can0 015#01
(000.804036) can0 056#00
(000.804434) can0 014#01
(000.805585) can0 008#00
(000.806664) can0 055#00
(000.807678) can0 05B#A378
(000.807808) can0 00D#9450
(000.809772) can0 014#01
(000.811902) can0 008#00
(000.813757) can0 055#00
(000.814598) can0 05B#A378
(000.814726) can0 00D#9450
(000.817889) can0 014#01
(000.818838) can0 007#00
(000.818955) can0 016#1C
(000.819082) can0 041#00
(000.819200) can0 056#00
(000.819333) can0 00E#945000
(000.821282) can0 00D#9450
(000.822938) can0 014#01
(000.824087) can0 008#00
(000.824206) can0 055#00
(000.825059) can0 05B#A378
(000.826061) can0 00D#9450
(000.827131) can0 014#01
(000.828115) can0 008#00
(000.829205) can0 055#00
(000.830050) can0 05B#A378
(000.830184) can0 00D#9450
(000.832126) can0 014#01
(000.833153) can0 008#00
(000.834009) can0 055#00
(000.834124) can0 007#00
(000.834241) can0 015#01
(000.834357) can0 016#1C
(000.834478) can0 041#00
(000.834598) can0 056#00
(000.834764) can0 05C#9F5C0E28
(000.834880) can0 016#1C
(000.834998) can0 05D#01
(000.835318) can0 05B#A378
(000.835451) can0 00D#9450
(000.837491) can0 014#01
(000.838556) can0 008#00
(000.838680) can0 055#00
(000.840546) can0 05B#A378
(000.840676) can0 00D#9450
(000.842581) can0 014#01
(000.843759) can0 008#00
(000.843877) can0 055#00
(000.844798) can0 05B#A378
(000.845573) can0 00D#9450
(000.846585) can0 014#01
(000.847665) can0 008#00
(000.848779) can0 055#00
(000.849507) can0 05B#A378
(000.849637) can0 00D#9450
(000.849753) can0 007#00
(000.849869) can0 015#01
(000.849989) can0 056#00
(000.852015) can0 014#01
(000.852626) can0 008#00
(000.853509) can0 055#00
(000.854595) can0 05B#A378
(000.854725) can0 00D#9450
(000.856471) can0 014#01
(000.857525) can0 008#00
(000.857645) can0 055#00
(000.859706) can0 05B#A378
(000.859837) can0 00D#9450
(000.861587) can0 014#01
(000.862464) can0 008#00
(000.862587) can0 055#00
(000.863526) can0 05B#A378
(000.864476) can0 00D#9450
(000.864686) can0 016#1C
(000.864803) can0 041#00
(000.864938) can0 00E#9450
(000.865053) can0 056#00
(000.865173) can0 05D#01
(000.865288) can0 007#00
(000.865406) can0 05D#01
(000.865939) can0 014#01
(000.866600) can0 008#00
(000.867697) can0 055#00
(000.868604) can0 05B#A378
(000.868734) can0 00D#9450
(000.870713) can0 014#01
(000.871694) can0 008#00
(000.873206) can0 055#00
(000.873690) can0 05B#A378
(000.873818) can0 00D#9450
(000.875681) can0 014#01
(000.876713) can0 008#00
(000.876828) can0 055#00
(000.878842) can0 05B#A378
(000.878975) can0 00D#9450
(000.879852) can0 015#01
(000.880021) can0 05C#9F5C0E28
(000.880133) can0 007#00
(000.880252) can0 016#1C
(000.880366) can0 016#1C
(000.880490) can0 041#00
(000.880608) can0 056#00
(000.880727) can0 014#01
(000.880842) can0 05D#01
(000.881698) can0 008#00
(000.881816) can0 055#00
(000.882870) can0 05B#A378
(000.883684) can0 00D#9450
(000.884688) can0 014#01
(000.885711) can0 008#00
(000.886696) can0 055#00
(000.887712) can0 05B#A378
(000.887845) can0 00D#9450
(000.889753) can0 014#01
(000.890832) can0 008#00
(000.891784) can0 055#00
(000.892667) can0 05B#A378
(000.892792) can0 00D#9450
(000.894700) can0 014#01
(000.894888) can0 007#00
(000.895005) can0 05D#01
(000.895129) can0 015#01
(000.895243) can0 056#00
(000.895370) can0 00E#9450
(000.895690) can0 008#00
(000.895809) can0 055#00
(000.897992) can0 05B#A378
(000.898094) can0 00D#9450
(000.899859) can0 014#01
(000.901006) can0 008#00
(000.901127) can0 055#00
(000.901978) can0 05B#A378
(000.903029) can0 00D#9450
(000.903909) can0 014#01
(000.905090) can0 008#00
(000.905972) can0 055#00
(000.906969) can0 05B#A378
(000.907132) can0 00D#9450
(000.908905) can0 014#01
(000.909874) can0 008#00
(000.910178) can0 007#00
(000.910295) can0 016#1C
(000.910420) can0 041#00
(000.910585) can0 05C#9F5C0E28
(000.910706) can0 056#00
(000.910818) can0 016#1C
(000.910940) can0 055#00
(000.911061) can0 05D#01
(000.911967) can0 05B#A378
(000.912096) can0 00D#9450
(000.913969) can0 014#01
(000.915211) can0 008#00
(000.915327) can0 055#00
(000.917326) can0 05B#A378
(000.917461) can0 00D#9450
(000.919392) can0 014#01
(000.920098) can0 008#00
(000.920218) can0 055#00
(000.921075) can0 05B#A378
(000.922145) can0 00D#9450
(000.923027) can0 014#01
(000.924183) can0 008#00
(000.925122) can0 055#00
(000.925263) can0 015#01
(000.925381) can0 05D#01
(000.926049) can0 05B#A378
(000.926179) can0 00D#9450
(000.928191) can0 014#01
(000.929076) can0 008#00
(000.930073) can0 055#00
(000.931137) can0 05B#A378
(000.931247) can0 00D#9450
(000.932949) can0 014#01
(000.934025) can0 008#00
(000.934149) can0 055#00
(000.936184) can0 05B#A378
(000.936311) can0 00D#9450
(000.937974) can0 014#01
(000.939029) can0 008#00
(000.939155) can0 055#00
(000.940273) can0 05B#A378
(000.940389) can0 016#1C
(000.940505) can0 007#00
(000.940627) can0 041#00
(000.940747) can0 056#00
(000.940877) can0 00E#9450
(000.940995) can0 05D#01
(000.941313) can0 00D#9450
(000.942297) can0 014#01
(000.943332) can0 008#00
(000.944235) can0 055#00
(000.945361) can0 05B#A378
(000.945494) can0 00D#9450
(000.947207) can0 014#01
(000.948306) can0 008#00
(000.949233) can0 055#00
(000.950252) can0 05B#A378
(000.950380) can0 00D#9450
(000.952404) can0 014#01
(000.953732) can0 008#00
(000.953856) can0 055#00
(000.955804) can0 05B#A378
(000.955915) can0 007#00
(000.956049) can0 00D#9450
(000.956162) can0 015#01
(000.956282) can0 056#00
(000.956453) can0 05C#9F5C0E28
(000.956564) can0 016#1C
(000.956684) can0 016#1C
(000.956802) can0 041#00
(000.957547) can0 014#01
(000.958624) can0 008#00
(000.958742) can0 055#00
(000.959561) can0 05B#A378
(000.960620) can0 00D#9450
(000.961505) can0 014#01
(000.962603) can0 008#00
(000.963628) can0 055#00
(000.964580) can0 05B#A378
(000.964705) can0 00D#9450
(000.966852) can0 014#01
(000.967914) can0 008#00
(000.969539) can0 055#00
(000.969955) can0 05B#A378
(000.970083) can0 00D#9450
(000.970958) can0 056#00
(000.971077) can0 05D#01
(000.971189) can0 015#01
(000.971325) can0 00E#9450
(000.971800) can0 014#01
(000.972982) can0 008#00
(000.973102) can0 055#00
(000.974901) can0 05B#A378
(000.975030) can0 00D#9450
(000.977197) can0 014#01
(000.977902) can0 008#00
(000.978030) can0 055#00
(000.978996) can0 05B#A378
(000.979962) can0 00D#9450
(000.980901) can0 014#01
(000.981970) can0 008#00
(000.982965) can0 055#00
(000.983943) can0 05B#A378
(000.984069) can0 00D#9450
(000.986062) can0 014#01
(000.986175) can0 007#00
(000.986294) can0 016#1C
(000.986413) can0 041#00
(000.986534) can0 056#00
(000.986921) can0 008#00
(000.987928) can0 055#00
(000.989016) can0 05B#A378
(000.989145) can0 00D#9450
(000.991212) can0 014#01
(000.992069) can0 008#00
(000.992197) can0 055#00
(000.994153) can0 05B#A378
(000.994281) can0 00D#9450
(000.996161) can0 014#01
(000.996779) can0 008#00
(000.996887) can0 055#00
(000.998109) can0 05B#A378
(000.998955) can0 00D#9450
(000.999885) can0 014#01
(001.000847) can0 008#00
(001.001075) can0 05C#9F5C0E28
(001.001195) can0 016#1C
(001.001303) can0 015#01
(001.001436) can0 056#00
(001.001545) can0 05D#01
(001.001669) can0 007#00
(001.001780) can0 055#00
(001.001898) can0 05D#01
(001.003009) can0 05B#A378
(001.003161) can0 00D#9450
(001.005146) can0 014#01
(001.006301) can0 008#00
(001.007323) can0 055#00
(001.008316) can0 05B#A378
(001.008443) can0 00D#9450
(001.010268) can0 014#01
(001.011250) can0 008#00
(001.011370) can0 055#00
(001.013410) can0 05B#A378
(001.013521) can0 00D#9450
(001.015248) can0 014#01
(001.016221) can0 008#00
(001.016341) can0 055#00
(001.016458) can0 016#1C
(001.016582) can0 041#00
(001.016703) can0 056#00
(001.016833) can0 00E#9450
(001.017670) can0 05B#A378
(001.018732) can0 00D#9450
(001.019737) can0 014#01
(001.020731) can0 008#00
(001.021857) can0 055#00
(001.023942) can0 05B#A378
(001.024077) can0 00D#9450
(001.025869) can0 014#01
(001.026735) can0 008#00
(001.028877) can0 055#00
(001.030967) can0 05B#A378
(001.031135) can0 00D#9450
(001.031683) can0 015#01
(001.031802) can0 007#00
(001.031915) can0 016#1C
(001.032040) can0 041#00
(001.032156) can0 05D#01
(001.032278) can0 056#00
(001.032442) can0 05C#9F5C0E28
(001.032560) can0 016#1C
(001.034034) can0 014#01
(001.036020) can0 008#00
(001.036140) can0 055#00
(001.038855) can0 05B#A378
(001.038989) can0 00D#9450
(001.041032) can0 014#01
(001.043062) can0 008#00
(001.043182) can0 055#00
(001.045079) can0 05B#A378
(001.046994) can0 00D#9450
(001.047211) can0 007#00
(001.047533) can0 014#01
(001.047709) can0 05D#01
(001.048724) can0 008#00
(001.050852) can0 055#00
(001.050982) can0 05B#A378
(001.051131) can0 00D#9450
(001.053749) can0 014#01
(001.054701) can0 008#00
(001.055623) can0 055#00
(001.056746) can0 05B#A378
(001.056874) can0 00D#9450
(001.058840) can0 014#01
(001.060992) can0 008#00
(001.061112) can0 055#00
(001.061844) can0 015#01
(001.061958) can0 007#00
(001.062083) can0 056#00
(001.062202) can0 05D#01
(001.063898) can0 05B#A378
(001.064029) can0 00D#9450
(001.065989) can0 014#01
(001.066609) can0 008#00
(001.066727) can0 055#00
(001.067841) can0 05B#A378
(001.068826) can0 00D#9450
(001.069796) can0 014#01
(001.070726) can0 008#00
(001.071769) can0 055#00
(001.072768) can0 05B#A378
(001.072901) can0 00D#9450
(001.074912) can0 014#01
(001.075745) can0 008#00
(001.076649) can0 055#00
(001.076792) can0 007#00
(001.076907) can0 016#1C
(001.077029) can0 041#00
(001.077159) can0 00E#9450
(001.077279) can0 056#00
(001.077449) can0 05C#9F5C0E28
(001.077579) can0 05B#A378
(001.077705) can0 00D#9450
(001.077823) can0 05D#01
(001.079939) can0 014#01
(001.080792) can0 008#00
(001.080910) can0 055#00
(001.082929) can0 05B#A378
(001.083065) can0 00D#9450
(001.085027) can0 014#01
(001.086092) can0 008#00
(001.086211) can0 055#00
(001.086980) can0 05B#A378
(001.088055) can0 00D#9450
(001.089006) can0 014#01
(001.090116) can0 008#00
(001.091134) can0 055#00
(001.092037) can0 05B#A378
(001.092169) can0 00D#9450
(001.092289) can0 015#01
(001.092401) can0 016#1C
(001.092517) can0 016#1C
(001.092639) can0 041#00
(001.092758) can0 056#00
(001.093893) can0 014#01
(001.095044) can0 008#00
(001.096014) can0 055#00
(001.096923) can0 05B#A378
(001.097050) can0 00D#9450
(001.099145) can0 014#01
(001.099860) can0 008#00
(001.099948) can0 055#00
(001.102127) can0 05B#A378
(001.102246) can0 00D#9450
(001.104109) can0 014#01
(001.104898) can0 008#00
(001.105017) can0 055#00
(001.105947) can0 05B#A378
(001.106881) can0 00D#9450
(001.107822) can0 014#01
(001.108232) can0 007#00
(001.108350) can0 05D#01
(001.109273) can0 008#00
(001.110608) can0 055#00
(001.111430) can0 05B#A378
(001.111566) can0 00D#9450
(001.113716) can0 014#01
(001.114468) can0 008#00
(001.115451) can0 055#00
(001.116494) can0 05B#A378
(001.116623) can0 00D#9450
(001.118705) can0 014#01
(001.119505) can0 008#00
(001.119623) can0 055#00
(001.121710) can0 05B#A378
(001.121839) can0 00D#9450
(001.123536) can0 014#01
(001.123783) can0 015#01
(001.123903) can0 007#00
(001.124020) can0 056#00
(001.124153) can0 00E#9450
(001.124269) can0 05D#01
(001.124515) can0 008#00
(001.124632) can0 055#00
(001.125810) can0 05B#A378
(001.126499) can0 00D#9450
(001.127680) can0 014#01
(001.128544) can0 008#00
(001.129669) can0 055#00
(001.130720) can0 05B#A378
(001.130849) can0 00D#9450
(001.132828) can0 014#01
(001.133956) can0 008#00
(001.135009) can0 055#00
(001.135999) can0 05B#A378
(001.136127) can0 00D#9450
(001.138161) can0 014#01
(001.138813) can0 008#00
(001.138932) can0 055#00
(001.139050) can0 016#1C
(001.139172) can0 041#00
(001.139337) can0 05C#9F5C0E28
(001.139454) can0 016#1C
(001.139575) can0 056#00
(001.141310) can0 05B#A378
(001.141443) can0 00D#9450
(001.143205) can0 014#01
(001.144146) can0 008#00
(001.144266) can0 055#00
(001.145183) can0 05B#A378
(001.146250) can0 00D#9450
(001.147121) can0 014#01
(001.148121) can0 008#00
(001.149349) can0 055#00
(001.150608) can0 05B#A378
(001.150739) can0 00D#9450
(001.152828) can0 014#01
(001.153847) can0 008#00
(001.154058) can0 015#01
(001.154188) can0 007#00
(001.154301) can0 05D#01
(001.155033) can0 055#00
(001.156263) can0 05B#A378
(001.156397) can0 00D#9450
(001.158299) can0 014#01
(001.159491) can0 008#00
(001.159611) can0 055#00
(001.161691) can0 05B#A378
(001.161820) can0 00D#9450
(001.164788) can0 014#01
(001.166868) can0 008#00
(001.166987) can0 055#00
(001.168760) can0 05B#A378
(001.169687) can0 016#1C
(001.169808) can0 041#00
(001.169959) can0 056#00
(001.170058) can0 00E#9450
(001.170182) can0 05D#01
(001.171227) can0 00D#9450
(001.172104) can0 014#01
(001.173252) can0 008#00
(001.174236) can0 055#00
(001.175230) can0 05B#A378
(001.175359) can0 00D#9450
(001.177120) can0 014#01
(001.178106) can0 008#00
(001.179065) can0 055#00
(001.180102) can0 05B#A378
(001.180230) can0 00D#9450
(001.182157) can0 014#01
(001.183125) can0 008#00
(001.183229) can0 055#00
(001.185177) can0 05B#A378
(001.185311) can0 00D#9450
(001.185675) can0 015#01
(001.185792) can0 056#00
(001.185939) can0 007#00
(001.186078) can0 05C#9F5C0E28
(001.186197) can0 016#1C
(001.186312) can0 016#1C
(001.186430) can0 041#00
(001.187075) can0 014#01
(001.188168) can0 008#00
(001.188282) can0 055#00
(001.189085) can0 05B#A378
(001.190163) can0 00D#9450
(001.191075) can0 014#01
(001.192179) can0 008#00
(001.193073) can0 055#00
(001.194119) can0 05B#A378
(001.194247) can0 00D#9450
(001.196247) can0 014#01
(001.197113) can0 008#00
(001.198074) can0 055#00
(001.199214) can0 05B#A378
(001.199316) can0 00D#9450
(001.201047) can0 014#01
(001.201251) can0 05D#01
(001.201441) can0 007#00
(001.201559) can0 056#00
(001.201662) can0 015#01
(001.201797) can0 00E#9450
(001.202091) can0 008#00
(001.202211) can0 055#00
(001.204464) can0 05B#A378
(001.204582) can0 00D#9450
(001.206449) can0 014#01
(001.207570) can0 008#00
(001.207684) can0 055#00
(001.208865) can0 05B#A378
(001.210872) can0 00D#9450
(001.211959) can0 014#01
(001.212918) can0 008#00
(001.213968) can0 055#00
(001.215027) can0 05B#F050
(001.215153) can0 00D#9450
(001.215988) can0 016#1C
(001.216110) can0 041#00
(001.216233) can0 056#00
(001.216392) can0 05C#B73B0E28
(001.216511) can0 016#1C
(001.217279) can0 014#01
(001.217893) can0 008#00
(001.218827) can0 055#00
(001.219811) can0 05B#F050
(001.219938) can0 00D#9450
(001.221919) can0 014#01
(001.222561) can0 008#00
(001.222678) can0 055#00
(001.225011) can0 05B#F050
(001.225139) can0 00D#9450
(001.227044) can0 014#01
(001.227657) can0 008#00
(001.227774) can0 055#00
(001.228837) can0 05B#F050
(001.229749) can0 00D#9450
(001.230787) can0 015#01
(001.230907) can0 007#00
(001.231025) can0 014#01
(001.231143) can0 056#00
(001.231261) can0 05D#01
(001.232073) can0 008#00
(001.233112) can0 055#00
(001.234209) can0 05B#F050
(001.234342) can0 00D#9450
(001.236310) can0 014#01
(001.236936) can0 008#00
(001.238058) can0 055#00
(001.239178) can0 05B#F050
(001.239306) can0 00D#9450
(001.241336) can0 014#01
(001.242453) can0 008#00
(001.242577) can0 055#00
(001.244656) can0 05B#F050
(001.244784) can0 00D#9450
(001.246537) can0 014#01
(001.246691) can0 016#1C
(001.246818) can0 041#00
(001.246936) can0 056#00
(001.247070) can0 00E#9450
(001.247418) can0 008#00
(001.247535) can0 055#00
(001.248546) can0 05B#F050
(001.249503) can0 00D#9450
(001.250463) can0 014#01
(001.251394) can0 008#00
(001.252382) can0 055#00
(001.253565) can0 05B#F050
(001.253692) can0 00D#9450
(001.255689) can0 014#01
(001.256781) can0 008#00
(001.257838) can0 055#00
(001.258798) can0 05B#F050
(001.258932) can0 00D#9450
(001.260952) can0 014#01
(001.261565) can0 008#00
(001.261683) can0 055#00
(001.261802) can0 007#00
(001.261915) can0 015#01
(001.262082) can0 05C#B73B5B00
(001.262195) can0 016#1C
(001.262320) can0 041#00
(001.262438) can0 056#00
(001.262557) can0 016#1C
(001.262672) can0 05D#01
(001.263751) can0 05B#F050
(001.263879) can0 00D#9450
(001.266046) can0 014#01
(001.266662) can0 008#00
(001.266781) can0 055#00
(001.267883) can0 05B#F050
(001.268743) can0 00D#9450
(001.269680) can0 014#01
(001.270776) can0 008#00
(001.271726) can0 055#00
(001.272726) can0 05B#F050
(001.272860) can0 00D#9450
(001.275008) can0 014#01
(001.275691) can0 008#00
(001.276872) can0 05D#01
(001.276995) can0 055#00
(001.277650) can0 05B#F050
(001.277783) can0 00D#9450
(001.280036) can0 014#01
(001.280687) can0 008#00
(001.280804) can0 055#00
(001.283021) can0 05B#F050
(001.283152) can0 00D#9450
(001.284798) can0 014#01
(001.285928) can0 008#00
(001.286045) can0 055#00
(001.286751) can0 05B#F050
(001.287752) can0 00D#9450
(001.288726) can0 014#01
(001.289907) can0 008#00
(001.290719) can0 055#00
(001.291881) can0 015#01
(001.291998) can0 007#00
(001.292117) can0 056#00
(001.292249) can0 05B#F050
(001.292381) can0 00D#9450
(001.293554) can0 014#01
(001.294511) can0 008#00
(001.295548) can0 055#00
(001.296596) can0 05B#F050
(001.296726) can0 00D#9450
(001.298893) can0 014#01
(001.299779) can0 008#00
(001.299895) can0 055#00
(001.301957) can0 05B#F050
(001.302089) can0 00D#9450
(001.303901) can0 014#01
(001.304709) can0 008#00
(001.304827) can0 055#00
(001.305935) can0 05B#F050
(001.306698) can0 016#1B
(001.306832) can0 00D#9450
(001.306951) can0 041#00
(001.307084) can0 00E#9450
(001.307200) can0 05D#01
(001.307995) can0 014#01
(001.309146) can0 008#00
(001.309778) can0 055#00
(001.311225) can0 05B#F050
(001.311353) can0 00D#9450
(001.313195) can0 014#01
(001.313804) can0 008#00
(001.315376) can0 055#00
(001.315876) can0 05B#F050
(001.316007) can0 00D#9450
(001.318119) can0 014#01
(001.319023) can0 008#00
(001.319145) can0 055#00
(001.321249) can0 05B#F050
(001.321379) can0 00D#9450
(001.322160) can0 007#00
(001.322305) can0 056#00
(001.322468) can0 05C#B73B5B00
(001.322586) can0 016#1B
(001.322836) can0 014#01
(001.324218) can0 008#00
(001.324336) can0 055#00
(001.324836) can0 05B#F050
(001.326236) can0 00D#9450
(001.326905) can0 014#01
(001.328189) can0 008#00
(001.328798) can0 055#00
(001.330337) can0 05B#F050
(001.330468) can0 00D#9450
(001.332292) can0 014#01
(001.333578) can0 008#00
(001.334151) can0 055#00
(001.335615) can0 05B#F050
(001.335744) can0 00D#9450
(001.337906) can0 014#01
(001.338022) can0 015#01
(001.338140) can0 05D#01
(001.339655) can0 008#00
(001.339773) can0 055#00
(001.341854) can0 05B#F050
(001.341985) can0 00D#9450
(001.343873) can0 014#01
(001.344913) can0 008#00
(001.345037) can0 055#00
(001.345973) can0 05B#F050
(001.346757) can0 00D#9450
(001.347819) can0 014#01
(001.349181) can0 008#00
(001.349780) can0 055#00
(001.351112) can0 05B#F050
(001.351216) can0 00D#9450
(001.353049) can0 016#1B
(001.353164) can0 014#01
(001.353282) can0 007#00
(001.353401) can0 041#00
(001.353524) can0 056#00
(001.353639) can0 05D#01
(001.354033) can0 008#00
(001.355587) can0 055#00
(001.356321) can0 05B#F050
(001.356455) can0 00D#9450
(001.358654) can0 014#01
(001.359164) can0 008#00
(001.359400) can0 055#00
(001.361526) can0 05B#F050
(001.361658) can0 00D#9450
(001.363544) can0 014#01
(001.364150) can0 008#00
(001.364357) can0 055#00
(001.365710) can0 05B#F050
(001.366345) can0 00D#9450
(001.367427) can0 014#01
(001.368537) can0 008#00
(001.368712) can0 007#00
(001.368843) can0 00E#9450
(001.368959) can0 015#01
(001.369079) can0 056#00
(001.369197) can0 05D#01
(001.369632) can0 055#00
(001.371108) can0 05B#F050
(001.371228) can0 00D#9450
(001.373306) can0 014#01
(001.373928) can0 008#00
(001.375059) can0 055#00
(001.375952) can0 05B#F050
(001.376078) can0 00D#9450
(001.377840) can0 014#01
(001.379008) can0 008#00
(001.379131) can0 055#00
(001.381200) can0 05B#F050
(001.381327) can0 00D#9450
(001.383158) can0 014#01
(001.384020) can0 008#00
(001.384137) can0 016#1B
(001.384259) can0 041#00
(001.384379) can0 055#00
(001.384543) can0 05C#B73B5B00
(001.384661) can0 016#1B
(001.384781) can0 056#00
(001.384914) can0 05B#F050
(001.386115) can0 00D#9450
(001.387029) can0 014#01
(001.388210) can0 008#00
(001.388946) can0 055#00
(001.390134) can0 05B#F050
(001.390264) can0 00D#9450
(001.392138) can0 014#01
(001.393035) can0 008#00
(001.394351) can0 055#00
(001.395284) can0 05B#F050
(001.395410) can0 00D#9450
(001.397234) can0 014#01
(001.398167) can0 008#00
(001.398286) can0 055#00
(001.399297) can0 015#01
(001.399410) can0 007#00
(001.399531) can0 05D#01
(001.400681) can0 05B#F050
(001.400815) can0 00D#9450
(001.402862) can0 014#01
(001.404940) can0 008#00
(001.405054) can0 055#00
(001.406949) can0 05B#F050
(001.409047) can0 00D#9450
(001.411148) can0 014#01
(001.411710) can0 008#00
(001.412772) can0 055#00
(001.413786) can0 05B#F050
(001.413922) can0 00D#9450
(001.415029) can0 016#1B
(001.415175) can0 041#00
(001.415227) can0 056#00
(001.415368) can0 00E#9450
(001.415740) can0 014#01
(001.417245) can0 008#00
(001.417809) can0 055#00
(001.418856) can0 05B#F050
(001.418988) can0 00D#9450
(001.421026) can0 014#01
(001.422377) can0 008#00
(001.422499) can0 055#00
(001.424528) can0 05B#F050
(001.424659) can0 00D#9450
(001.426333) can0 014#01
(001.426939) can0 008#00
(001.427066) can0 055#00
(001.428588) can0 05B#F050
(001.429060) can0 00D#9450
(001.430250) can0 014#01
(001.430393) can0 007#00
(001.430510) can0 015#01
(001.430629) can0 056#00
(001.430748) can0 05D#01
(001.430910) can0 05C#B73B5B00
(001.431034) can0 008#00
(001.431149) can0 016#1B
(001.432683) can0 055#00
(001.433330) can0 05B#F050
(001.433461) can0 00D#9450
(001.435640) can0 014#01
(001.436745) can0 008#00
(001.437682) can0 055#00
(001.438717) can0 05B#F050
(001.438843) can0 00D#9450
(001.440934) can0 014#01
(001.442038) can0 008#00
(001.442161) can0 055#00
(001.444201) can0 05B#F050
(001.444328) can0 00D#9450
(001.446325) can0 014#01
(001.446443) can0 016#1B
(001.446561) can0 041#00
(001.447228) can0 008#00
(001.447274) can0 055#00
(001.448346) can0 05B#F050
(001.449210) can0 00D#9450
(001.450216) can0 014#01
(001.451311) can0 008#00
(001.452194) can0 055#00
(001.453388) can0 05B#F050
(001.453520) can0 00D#9450
(001.455606) can0 014#01
(001.456191) can0 008#00
(001.457719) can0 055#00
(001.458559) can0 05B#F050
(001.458691) can0 00D#9450
(001.460517) can0 014#01
(001.461331) can0 007#00
(001.461451) can0 008#00
(001.461570) can0 055#00
(001.461689) can0 056#00
(001.461806) can0 05D#01
(001.461925) can0 05D#01
(001.464228) can0 05B#F050
(001.464358) can0 00D#9450
(001.466140) can0 014#01
(001.466795) can0 008#00
(001.466916) can0 055#00
(001.467924) can0 05B#F050
(001.468581) can0 00D#9450
(001.469935) can0 014#01
(001.470588) can0 008#00
(001.472105) can0 055#00
(001.472856) can0 05B#F050
(001.472985) can0 00D#9450
(001.474947) can0 014#01
(001.475585) can0 008#00
(001.476792) can0 055#00
(001.476999) can0 015#01
(001.477185) can0 00E#9450
(001.477301) can0 007#00
(001.477418) can0 05D#01
(001.478192) can0 05B#F050
(001.478323) can0 00D#9450
(001.480203) can0 014#01
(001.481161) can0 008#00
(001.481283) can0 055#00
(001.483597) can0 05B#F050
(001.483725) can0 00D#9450
(001.485477) can0 014#01
(001.486676) can0 008#00
(001.486803) can0 055#00
(001.487345) can0 05B#F050
(001.488571) can0 00D#9450
(001.489545) can0 014#01
(001.490493) can0 008#00
(001.491536) can0 055#00
(001.492529) can0 007#00
(001.492661) can0 05B#F050
(001.492791) can0 00D#9450
(001.492908) can0 016#1B
(001.493031) can0 041#00
(001.493151) can0 056#00
(001.493320) can0 05C#B73B5B00
(001.493433) can0 016#1B
(001.493552) can0 05D#01
(001.494933) can0 014#01
(001.495688) can0 008#00
(001.496787) can0 055#00
(001.497962) can0 05B#F050
(001.498094) can0 00D#9450
(001.500043) can0 014#01
(001.501297) can0 008#00
(001.501423) can0 055#00
(001.503291) can0 05B#F050
(001.503421) can0 00D#9450
(001.505226) can0 014#01
(001.506310) can0 008#00
(001.506423) can0 055#00
(001.507360) can0 05B#F050
(001.507473) can0 015#01
(001.507589) can0 007#00
(001.507708) can0 056#00
(001.507827) can0 016#1B
(001.507973) can0 041#00
(001.508068) can0 05D#01
(001.508828) can0 00D#9450
(001.509703) can0 014#01
(001.510798) can0 008#00
(001.511762) can0 055#00
(001.512762) can0 05B#F050
(001.512890) can0 00D#9450
(001.515507) can0 014#01
(001.516056) can0 008#00
(001.516862) can0 055#00
(001.518026) can0 05B#F050
(001.518157) can0 00D#9450
(001.519954) can0 014#01
(001.520925) can0 008#00
(001.521052) can0 055#00
(001.523032) can0 05B#F050
(001.523163) can0 00D#9450
(001.523282) can0 007#00
(001.523400) can0 056#00
(001.523531) can0 00E#9450
(001.523645) can0 015#01
(001.523816) can0 05C#B73B5B00
(001.523928) can0 016#1B
(001.524052) can0 05D#01
(001.525012) can0 014#01
(001.526138) can0 008#00
(001.526260) can0 055#00
(001.526932) can0 05B#F050
(001.528039) can0 00D#9450
(001.528974) can0 014#01
(001.529997) can0 008#00
(001.530969) can0 055#00
(001.532006) can0 05B#F050
(001.532135) can0 00D#9450
(001.534090) can0 014#01
(001.534980) can0 008#00
(001.535979) can0 055#00
(001.537278) can0 05B#F050
(001.537405) can0 00D#9450
(001.538678) can0 007#00
(001.538790) can0 05D#01
(001.538911) can0 016#1B
(001.539030) can0 041#00
(001.539173) can0 056#00
(001.539270) can0 014#01
(001.540514) can0 008#00
(001.540633) can0 055#00
(001.542442) can0 05B#F050
(001.542574) can0 00D#9450
(001.544531) can0 014#01
(001.545747) can0 008#00
(001.545869) can0 055#00
(001.546961) can0 05B#F050
(001.547718) can0 00D#9450
(001.548618) can0 014#01
(001.549768) can0 008#00
(001.552096) can0 055#00
(001.553838) can0 05B#F050
(001.553962) can0 007#00
(001.554087) can0 00D#9450
(001.556190) can0 014#01
(001.557384) can0 008#00
(001.558304) can0 055#00
(001.559341) can0 05B#F050
(001.559473) can0 00D#9450
(001.561507) can0 014#01
(001.562605) can0 008#00
(001.562724) can0 055#00
(001.564795) can0 05B#F050
(001.564925) can0 00D#9450
(001.567847) can0 014#01
(001.569745) can0 008#00
(001.569921) can0 055#00
(001.570037) can0 015#01
(001.570160) can0 056#00
(001.570294) can0 00E#9450
(001.570406) can0 05D#01
(001.570544) can0 05B#F050
(001.570654) can0 007#00
(001.570883) can0 00D#9450
(001.572289) can0 014#01
(001.573053) can0 008#00
(001.574149) can0 055#00
(001.575126) can0 05B#F050
(001.575231) can0 00D#9450
(001.577277) can0 014#01
(001.578470) can0 008#00
(001.579567) can0 055#00
(001.580320) can0 05B#F050
(001.580448) can0 00D#9450
(001.582560) can0 014#01
(001.583405) can0 008#00
(001.583526) can0 055#00
(001.585551) can0 05B#F050
(001.585676) can0 00D#9450
(001.585800) can0 016#1B
(001.585912) can0 05D#01
(001.586041) can0 041#00
(001.587384) can0 014#01
(001.588443) can0 008#00
(001.588558) can0 055#00
(001.589462) can0 05B#F050
(001.590443) can0 00D#9450
(001.591467) can0 014#01
(001.592317) can0 008#00
(001.593464) can0 055#00
(001.594430) can0 05B#F050
(001.594562) can0 00D#9450
(001.596594) can0 014#01
(001.597296) can0 008#00
(001.598345) can0 055#00
(001.599506) can0 05B#F050
(001.599634) can0 00D#9450
(001.600512) can0 007#00
(001.600627) can0 056#00
(001.600781) can0 05C#B73B5B00
(001.600903) can0 016#1B
(001.601011) can0 015#01
(001.601131) can0 05D#01
(001.601769) can0 014#01
(001.603066) can0 008#00
(001.603186) can0 055#00
(001.605057) can0 05B#F050
(001.605192) can0 00D#9450
(001.607124) can0 014#01
(001.607795) can0 008#00
(001.607916) can0 055#00
(001.608875) can0 05B#F050
(001.609846) can0 00D#9450
(001.610837) can0 014#01
(001.611775) can0 008#00
(001.612791) can0 055#00
(001.613861) can0 05B#F050
(001.613989) can0 00D#9450
(001.615902) can0 014#01
(001.616153) can0 016#1B
(001.616264) can0 007#00
(001.616387) can0 041#00
(001.616506) can0 056#00
(001.616625) can0 05D#01
(001.616812) can0 008#00
(001.618101) can0 055#00
(001.619083) can0 05B#F050
(001.619218) can0 00D#9450
(001.621232) can0 014#01
(001.621986) can0 008#00
(001.622111) can0 055#00
(001.624250) can0 05B#F050
(001.624355) can0 00D#9450
(001.626054) can0 014#01
(001.627082) can0 008#00
(001.627180) can0 055#00
(001.628008) can0 05B#DD53
(001.628989) can0 00D#9450
(001.629958) can0 014#01
(001.630999) can0 008#00
(001.631917) can0 055#00
(001.632187) can0 007#00
(001.632303) can0 05D#01
(001.632460) can0 00E#9450
(001.633041) can0 05B#DD53
(001.633166) can0 00D#9450
(001.635271) can0 014#01
(001.636002) can0 008#00
(001.636997) can0 055#00
(001.638026) can0 05B#DD53
(001.638157) can0 00D#9450
(001.640031) can0 014#01
(001.641014) can0 008#00
(001.641127) can0 055#00
(001.643259) can0 05B#DD53
(001.643375) can0 00D#9450
(001.645564) can0 014#01
(001.646702) can0 008#00
(001.646823) can0 055#00
(001.647684) can0 05B#DD53
(001.647804) can0 007#00
(001.647913) can0 015#01
(001.648042) can0 056#00
(001.648152) can0 016#1B
(001.648277) can0 041#00
(001.648450) can0 05C#243E4803
(001.648567) can0 016#1B
(001.648690) can0 00D#9450
(001.649594) can0 014#01
(001.650676) can0 008#00
(001.651670) can0 055#00
(001.652594) can0 05B#DD53
(001.652725) can0 00D#9450
(001.654863) can0 014#01
(001.656910) can0 008#00
(001.658868) can0 055#00
(001.661164) can0 05B#DD53
(001.661300) can0 00D#9450
(001.662976) can0 056#00
(001.663112) can0 05D#01
(001.663554) can0 007#00
(001.663665) can0 05D#01
(001.664677) can0 014#01
(001.665686) can0 008#00
(001.665803) can0 055#00
(001.668306) can0 05B#5555
(001.668435) can0 00D#9450
(001.670224) can0 014#01
(001.671173) can0 008#00
(001.671290) can0 055#00
(001.672253) can0 05B#CD56
(001.673280) can0 00D#9450
(001.674184) can0 014#01
(001.675444) can0 008#00
(001.676055) can0 055#00
(001.677420) can0 05B#CD56
(001.677557) can0 00D#9450
(001.678291) can0 015#01
(001.678406) can0 007#00
(001.678525) can0 016#1B
(001.678646) can0 041#00
(001.678767) can0 056#00
(001.678897) can0 00E#9450
(001.679016) can0 05D#01
(001.679134) can0 014#01
(001.680776) can0 008#00
(001.681533) can0 055#00
(001.682659) can0 05B#CD56
(001.682793) can0 00D#9450
(001.684661) can0 014#01
(001.685597) can0 008#00
(001.685717) can0 055#00
(001.687851) can0 05B#5958
(001.687979) can0 00D#9450
(001.690131) can0 014#01
(001.691181) can0 008#00
(001.691294) can0 055#00
(001.692328) can0 05B#5958
(001.693317) can0 00D#9450
(001.693481) can0 05C#DC413806
(001.694163) can0 014#01
(001.695332) can0 008#00
(001.696240) can0 055#00
(001.697198) can0 05B#5958
(001.697328) can0 00D#9450
(001.699411) can0 014#01
(001.700299) can0 008#00
(001.701340) can0 055#00
(001.702208) can0 05B#5958
(001.702341) can0 00D#9450
(001.704189) can0 014#01
(001.705324) can0 008#00
(001.705445) can0 055#00
(001.707382) can0 05B#FA59
(001.707511) can0 00D#9450
(001.708149) can0 007#00
(001.708266) can0 05D#01
(001.708381) can0 015#01
(001.708502) can0 056#00
(001.708618) can0 016#1B
(001.709025) can0 014#01
(001.710069) can0 008#00
(001.710190) can0 055#00
(001.711356) can0 05B#FA59
(001.712235) can0 00D#9450
(001.713220) can0 014#01
(001.714241) can0 008#00
(001.715245) can0 055#00
(001.716170) can0 05B#FA59
(001.716293) can0 00D#9450
(001.718169) can0 014#01
(001.719382) can0 008#00
(001.720165) can0 055#00
(001.721168) can0 05B#0A5D
(001.721303) can0 00D#9450
(001.723291) can0 014#01
(001.723456) can0 007#00
(001.723571) can0 016#1B
(001.723694) can0 041#00
(001.723810) can0 05D#01
(001.723931) can0 05D#01
(001.724046) can0 008#00
(001.724172) can0 055#00
(001.726545) can0 05B#0A5D
(001.726677) can0 00D#9450
(001.728884) can0 014#01
(001.729954) can0 008#00
(001.730073) can0 055#00
(001.731034) can0 05B#0A5D
(001.732029) can0 00D#9450
(001.733004) can0 014#01
(001.734079) can0 008#00
(001.734963) can0 055#00
(001.735940) can0 05B#0A5D
(001.736068) can0 00D#9450
(001.738140) can0 014#01
(001.738903) can0 007#00
(001.739024) can0 008#00
(001.739143) can0 056#00
(001.739256) can0 015#01
(001.739373) can0 05D#01
(001.739504) can0 00E#9450
(001.739789) can0 055#00
(001.741017) can0 05B#0A5D
(001.741147) can0 00D#9450
(001.742986) can0 014#01
(001.744025) can0 008#00
(001.744146) can0 055#00
(001.746110) can0 05B#0A5D
(001.746243) can0 00D#9450
(001.748782) can0 014#01
(001.750886) can0 008#00
(001.751003) can0 055#00
(001.751501) can0 05B#B060
(001.752714) can0 00D#9450
(001.753555) can0 014#01
(001.754521) can0 008#00
(001.754638) can0 007#00
(001.754756) can0 016#1B
(001.754877) can0 041#00
(001.754995) can0 05D#01
(001.755119) can0 056#00
(001.755284) can0 05C#BF45750C
(001.755401) can0 016#1B
(001.755650) can0 055#00
(001.757003) can0 05B#B060
(001.757134) can0 00D#9450
(001.759485) can0 014#01
(001.760227) can0 008#00
(001.761497) can0 055#00
(001.762621) can0 05B#A462
(001.762751) can0 00D#9450
(001.764712) can0 014#01
(001.765578) can0 008#00
(001.765699) can0 055#00
(001.767669) can0 05B#A462
(001.767796) can0 00D#9450
(001.769165) can0 014#01
(001.770088) can0 008#00
(001.770208) can0 055#00
(001.770324) can0 007#00
(001.770440) can0 015#01
(001.770560) can0 056#00
(001.771536) can0 05B#AE64
(001.772597) can0 00D#9450
(001.773587) can0 014#01
(001.774511) can0 008#00
(001.775767) can0 055#00
(001.776595) can0 05B#AE64
(001.776725) can0 00D#9450
(001.778710) can0 014#01
(001.780818) can0 008#00
(001.782915) can0 055#00
(001.784803) can0 05B#AE64
(001.784930) can0 00D#9450
(001.785860) can0 016#1B
(001.785982) can0 041#00
(001.786112) can0 00E#9450
(001.786232) can0 056#00
(001.786350) can0 05D#01
(001.786466) can0 007#00
(001.786585) can0 05D#01
(001.787941) can0 014#01
(001.788610) can0 008#00
(001.788731) can0 055#00
(001.791125) can0 05B#D066
(001.791253) can0 00D#9450
(001.793073) can0 014#01
(001.794042) can0 008#00
(001.794169) can0 055#00
(001.794787) can0 05B#D066
(001.795961) can0 00D#9450
(001.796885) can0 014#01
(001.797875) can0 008#00
(001.798953) can0 055#00
(001.799827) can0 05B#D066
(001.799957) can0 00D#9450
(001.800969) can0 015#01
(001.801084) can0 007#00
(001.801253) can0 05C#144C1914
(001.801370) can0 016#1B
(001.801489) can0 016#1B
(001.801610) can0 041#00
(001.801731) can0 056#00
(001.801849) can0 05D#01
(001.801981) can0 014#01
(001.803463) can0 008#00
(001.804303) can0 055#00
(001.805325) can0 05B#D066
(001.805456) can0 00D#9450
(001.807458) can0 014#01
(001.808535) can0 008#00
(001.808654) can0 055#00
(001.810731) can0 05B#D066
(001.810859) can0 00D#9450
(001.812876) can0 014#01
(001.813526) can0 008#00
(001.813648) can0 055#00
(001.814645) can0 05B#D066
(001.815615) can0 00D#9450
(001.815748) can0 015#01
(001.815858) can0 007#00
(001.815988) can0 056#00
(001.816114) can0 00E#9450
(001.816231) can0 05D#01
(001.817161) can0 014#01
(001.818295) can0 008#00
(001.819449) can0 055#00
(001.820429) can0 05B#0769
(001.820559) can0 00D#9450
(001.822318) can0 014#01
(001.823301) can0 008#00
(001.824409) can0 055#00
(001.825372) can0 05B#0769
(001.825501) can0 00D#9450
(001.827614) can0 014#01
(001.828895) can0 008#00
(001.829014) can0 055#00
(001.831200) can0 05B#546B
(001.831328) can0 00D#9450
(001.831448) can0 016#1B
(001.831567) can0 041#00
(001.833570) can0 014#01
(001.834410) can0 008#00
(001.834536) can0 055#00
(001.835688) can0 05B#B56D
(001.836812) can0 00D#9450
(001.837770) can0 014#01
(001.838717) can0 008#00
(001.839793) can0 055#00
(001.840706) can0 05B#B56D
(001.840836) can0 00D#9450
(001.842788) can0 014#01
(001.843721) can0 008#00
(001.844737) can0 055#00
(001.845843) can0 05B#B56D
(001.845971) can0 00D#9450
(001.846861) can0 007#00
(001.846979) can0 056#00
(001.847146) can0 05C#AF4F3B16
(001.847260) can0 016#1B
(001.847380) can0 05D#01
(001.847653) can0 014#01
(001.848890) can0 008#00
(001.849012) can0 055#00
(001.850914) can0 05B#B56D
(001.851043) can0 00D#9450
(001.852932) can0 014#01
(001.853714) can0 008#00
(001.853832) can0 055#00
(001.854930) can0 05B#856E
(001.855785) can0 00D#9450
(001.856843) can0 014#01
(001.857657) can0 008#00
(001.858864) can0 055#00
(001.859846) can0 05B#856E
(001.859976) can0 00D#9450
(001.861897) can0 014#01
(001.862122) can0 05D#01
(001.862237) can0 007#00
(001.862353) can0 015#01
(001.862654) can0 008#00
(001.863913) can0 055#00
(001.864792) can0 05B#856E
(001.864921) can0 00D#9450
(001.866920) can0 014#01
(001.867714) can0 008#00
(001.867834) can0 055#00
(001.869956) can0 05B#E170
(001.870089) can0 00D#9450
(001.871923) can0 014#01
(001.872802) can0 008#00
(001.872918) can0 055#00
(001.873783) can0 05B#E170
(001.874771) can0 00D#9450
(001.875923) can0 014#01
(001.876743) can0 008#00
(001.877731) can0 055#00
(001.878146) can0 007#00
(001.878262) can0 016#1B
(001.878382) can0 05D#01
(001.878502) can0 041#00
(001.878623) can0 056#00
(001.879014) can0 05B#E170
(001.879147) can0 00D#9450
(001.881064) can0 014#01
(001.882242) can0 008#00
(001.883045) can0 055#00
(001.884228) can0 05B#4D73
(001.884353) can0 00D#9450
(001.886416) can0 014#01
(001.887140) can0 008#00
(001.887239) can0 055#00
(001.889408) can0 05B#DC73
(001.889539) can0 00D#9450
(001.891428) can0 014#01
(001.892349) can0 008#00
(001.892472) can0 055#00
(001.893057) can0 05B#DC73
(001.893254) can0 007#00
(001.893370) can0 05D#01
(001.893502) can0 00E#9450
(001.894557) can0 00D#9450
(001.895809) can0 014#01
(001.896584) can0 008#00
(001.897765) can0 055#00
(001.898737) can0 05B#DC73
(001.898870) can0 00D#9450
(001.900926) can0 014#01
(001.901445) can0 008#00
(001.902950) can0 055#00
(001.903852) can0 05B#DC73
(001.903981) can0 00D#9450
(001.905986) can0 014#01
(001.906781) can0 008#00
(001.906902) can0 055#00
(001.908657) can0 05B#DC73
(001.908787) can0 00D#9450
(001.908958) can0 015#01
(001.909082) can0 056#00
(001.909244) can0 05C#A9584C20
(001.909459) can0 016#1B
(001.909582) can0 041#00
(001.909700) can0 016#1B
(001.910713) can0 014#01
(001.911757) can0 008#00
(001.911877) can0 055#00
(001.912835) can0 05B#DC73
(001.913657) can0 00D#9450
(001.914680) can0 014#01
(001.915880) can0 008#00
(001.916502) can0 055#00
(001.917724) can0 05B#3A76
(001.917835) can0 00D#9450
(001.919767) can0 014#01
(001.920601) can0 008#00
(001.921945) can0 055#00
(001.922829) can0 05B#3A76
(001.922966) can0 00D#9450
(001.923764) can0 007#00
(001.923880) can0 05D#01
(001.924000) can0 056#00
(001.924131) can0 05D#01
(001.924991) can0 014#01
(001.926006) can0 008#00
(001.926126) can0 055#00
(001.928154) can0 05B#3A76
(001.928287) can0 00D#9450
(001.930035) can0 014#01
(001.931007) can0 008#00
(001.931159) can0 055#00
(001.932274) can0 05B#3A76
(001.932978) can0 00D#9450
(001.933989) can0 014#01
(001.935301) can0 008#00
(001.936010) can0 055#00
(001.937076) can0 05B#3A76
(001.937206) can0 00D#9450
(001.939208) can0 014#01
(001.939326) can0 007#00
(001.939442) can0 015#01
(001.939576) can0 016#1B
(001.939681) can0 041#00
(001.939805) can0 056#00
(001.939953) can0 008#00
(001.940046) can0 00E#9450
(001.941143) can0 055#00
(001.942020) can0 05B#A378
(001.942156) can0 00D#9450
(001.943855) can0 014#01
(001.945239) can0 008#00
(001.945360) can0 055#00
(001.947240) can0 05B#A378
(001.947366) can0 00D#9450
(001.949192) can0 014#01
(001.950006) can0 008#00
(001.950132) can0 055#00
(001.951065) can0 05B#A378
(001.952020) can0 00D#9450
(001.953064) can0 014#01
(001.954147) can0 008#00
(001.954870) can0 055#00
(001.955007) can0 05D#01
(001.955173) can0 007#00
(001.955413) can0 05C#A05AA525
(001.955532) can0 016#1B
(001.955653) can0 015#01
(001.955770) can0 056#00
(001.956472) can0 05B#A378
(001.956603) can0 00D#9450
(001.958569) can0 014#01
(001.959432) can0 008#00
(001.960370) can0 055#00
(001.961516) can0 05B#A378
(001.961649) can0 00D#9450
(001.963547) can0 014#01
(001.964399) can0 008#00
(001.964520) can0 055#00
(001.966656) can0 05B#A378
(001.966786) can0 00D#9450
(001.968508) can0 014#01
(001.969350) can0 008#00
(001.969470) can0 055#00
(001.970366) can0 05B#A378
(001.970959) can0 016#1B
(001.971079) can0 041#00
(001.971394) can0 00D#9450
(001.972865) can0 014#01
(001.974046) can0 008#00
(001.974639) can0 055#00
(001.975919) can0 05B#137B
(001.976042) can0 00D#9450
(001.978179) can0 014#01
(001.978631) can0 008#00
(001.979871) can0 055#00
(001.980830) can0 05B#137B
(001.980961) can0 00D#9450
(001.983159) can0 014#01
(001.983745) can0 008#00
(001.983888) can0 055#00
(001.986104) can0 05B#137B
(001.986233) can0 00D#9450
(001.986356) can0 007#00
(001.986472) can0 056#00
(001.986603) can0 00E#9450
(001.986719) can0 015#01
(001.986841) can0 05D#01
(001.987885) can0 014#01
(001.988860) can0 008#00
(001.989109) can0 055#00
(001.990028) can0 05B#887D
(001.991011) can0 00D#9450
(001.992024) can0 014#01
(001.992971) can0 008#00
(001.993989) can0 055#00
(001.995018) can0 05B#887D
(001.995147) can0 00D#9450
(001.997144) can0 014#01
(001.997990) can0 008#00
(001.998941) can0 055#00
(001.999977) can0 05B#887D
(002.000105) can0 00D#9450
(002.001159) can0 016#1B
(002.001285) can0 007#00
(002.001399) can0 041#00
(002.001522) can0 056#00
(002.001682) can0 05C#A45E7E2A
(002.001815) can0 016#1B
(002.001946) can0 014#01
(002.002031) can0 05D#01
(002.003132) can0 008#00
(002.003251) can0 055#00
(002.005048) can0 05B#887D
(002.005180) can0 00D#9450
(002.007259) can0 014#01
(002.008388) can0 008#00
(002.008515) can0 055#00
(002.009452) can0 05B#FF7F
(002.010346) can0 00D#9450
(002.011407) can0 014#01
(002.012246) can0 008#00
(002.013351) can0 055#00
(002.014400) can0 05B#FF7F
(002.014531) can0 00D#9450
(002.016398) can0 014#01
(002.016832) can0 05D#01
(002.017546) can0 008#00
(002.018993) can0 055#00
(002.020092) can0 05B#FF7F
(002.020222) can0 00D#9450
(002.022069) can0 014#01
(002.023044) can0 008#00
(002.023160) can0 055#00
(002.025188) can0 05B#FF7F
(002.025319) can0 00D#9450
(002.027012) can0 014#01
(002.028071) can0 008#00
(002.028193) can0 055#00
(002.029007) can0 05B#FF7F
(002.030056) can0 00D#9450
(002.031065) can0 014#01
(002.031983) can0 008#00
(002.032161) can0 007#00
(002.032273) can0 015#01
(002.032395) can0 05D#01
(002.032514) can0 056#00
(002.032633) can0 016#1B
(002.032754) can0 041#00
(002.032885) can0 00E#9450
(002.033252) can0 055#00
(002.034688) can0 05B#FF7F
(002.034819) can0 00D#9450
(002.036590) can0 014#01
(002.037487) can0 008#00
(002.038444) can0 055#00
(002.039485) can0 05B#FF7F
(002.039615) can0 00D#9450
(002.041677) can0 014#01
(002.042546) can0 008#00
(002.042667) can0 055#00
(002.045124) can0 05B#7682
(002.045252) can0 00D#9450
(002.046951) can0 014#01
(002.047125) can0 056#00
(002.047401) can0 007#00
(002.048123) can0 008#00
(002.048243) can0 055#00
(002.049214) can0 05B#7682
(002.050253) can0 00D#9450
(002.051177) can0 014#01
(002.052210) can0 008#00
(002.053167) can0 055#00
(002.054181) can0 05B#7682
(002.054311) can0 00D#9450
(002.056326) can0 014#01
(002.057442) can0 008#00
(002.058431) can0 055#00
(002.059384) can0 05B#7682
(002.059514) can0 00D#9450
(002.061570) can0 014#01
(002.062294) can0 008#00
(002.062419) can0 055#00
(002.062534) can0 015#01
(002.062694) can0 05C#C4646A2F
(002.062812) can0 016#1B
(002.062955) can0 016#1B
(002.063056) can0 041#00
(002.063173) can0 056#00
(002.063291) can0 05D#01
(002.064955) can0 05B#7682
(002.065086) can0 00D#9450
(002.068175) can0 014#01
(002.069085) can0 008#00
(002.069206) can0 055#00
(002.070111) can0 05B#7682
(002.071119) can0 00D#9450
(002.072054) can0 014#01
(002.073040) can0 008#00
(002.074049) can0 055#00
(002.075045) can0 05B#7682
(002.075180) can0 00D#9450
(002.077294) can0 014#01
(002.077414) can0 007#00
(002.077929) can0 008#00
(002.079030) can0 055#00
(002.080132) can0 05B#7682
(002.080264) can0 00D#9450
(002.082585) can0 014#01
(002.083451) can0 008#00
(002.083573) can0 055#00
(002.085655) can0 05B#7682
(002.085787) can0 00D#9450
(002.087656) can0 014#01
(002.088532) can0 008#00
(002.088646) can0 055#00
(002.089589) can0 05B#7682
(002.090609) can0 00D#9450
(002.091536) can0 014#01
(002.092613) can0 008#00
(002.092730) can0 015#01
(002.092849) can0 056#00
(002.092979) can0 00E#9450
(002.093097) can0 016#1B
(002.093220) can0 041#00
(002.093381) can0 05C#C464E131
(002.093500) can0 05D#01
(002.093617) can0 007#00
(002.093734) can0 05D#01
(002.093866) can0 055#00
(002.095127) can0 05B#EB84
(002.095239) can0 00D#9450
(002.097220) can0 014#01
(002.097960) can0 008#00
(002.099559) can0 055#00
(002.100315) can0 05B#EB84
(002.100446) can0 00D#9450
(002.102639) can0 014#01
(002.103698) can0 008#00
(002.103819) can0 055#00
(002.105924) can0 05B#EB84
(002.106056) can0 00D#9450
(002.107967) can0 014#01
(002.108146) can0 007#00
(002.108264) can0 056#00
(002.108382) can0 016#1B
(002.108500) can0 05D#01
(002.108618) can0 008#00
(002.108742) can0 055#00
(002.109710) can0 05B#EB84
(002.111518) can0 00D#9450
(002.112296) can0 014#01
(002.113339) can0 008#00
(002.114370) can0 055#00
(002.115351) can0 05B#C489
(002.115481) can0 00D#9450
(002.117562) can0 014#01
(002.118140) can0 008#00
(002.119464) can0 055#00
(002.120215) can0 05B#C489
(002.120345) can0 00D#9450
(002.122527) can0 014#01
(002.123208) can0 008#00
(002.123320) can0 055#00
(002.123567) can0 015#01
(002.125151) can0 05B#C489
(002.125284) can0 00D#9450
(002.127166) can0 014#01
(002.128318) can0 008#00
(002.128446) can0 055#00
(002.129408) can0 05B#C489
(002.130354) can0 00D#9450
(002.131366) can0 014#01
(002.132393) can0 008#00
(002.133384) can0 055#00
(002.134483) can0 05B#C489
(002.134614) can0 00D#9450
(002.136327) can0 014#01
(002.137540) can0 008#00
(002.138515) can0 055#00
(002.138698) can0 016#1B
(002.138820) can0 007#00
(002.138939) can0 041#00
(002.139060) can0 056#00
(002.139175) can0 05D#01
(002.140177) can0 05B#C489
(002.140303) can0 00D#9450
(002.142079) can0 014#01
(002.143036) can0 008#00
(002.143151) can0 055#00
(002.145405) can0 05B#C489
(002.145528) can0 00D#9450
(002.147285) can0 014#01
(002.148299) can0 008#00
(002.148656) can0 055#00
(002.149852) can0 05B#C489
(002.150874) can0 00D#9450
(002.151863) can0 014#01
(002.152814) can0 008#00
(002.154015) can0 055#00
(002.154137) can0 007#00
(002.154258) can0 00E#9450
(002.154376) can0 015#01
(002.154499) can0 056#00
(002.154663) can0 05C#D26A2F39
(002.154778) can0 016#1B
(002.154895) can0 05D#01
(002.155401) can0 05B#228C
(002.155532) can0 00D#9450
(002.157282) can0 014#01
(002.158114) can0 008#00
(002.159202) can0 055#00
(002.160104) can0 05B#228C
(002.160234) can0 00D#9450
(002.162186) can0 014#01
(002.163209) can0 008#00
(002.163331) can0 055#00
(002.165213) can0 05B#228C
(002.165345) can0 00D#9450
(002.167285) can0 014#01
(002.168299) can0 008#00
(002.168416) can0 055#00
(002.169181) can0 05B#228C
(002.169342) can0 05D#01
(002.169462) can0 016#1B
(002.169576) can0 007#00
(002.169698) can0 041#00
(002.169816) can0 056#00
(002.170607) can0 00D#9450
(002.171494) can0 014#01
(002.172448) can0 008#00
(002.173298) can0 055#00
(002.174409) can0 05B#228C
(002.174538) can0 00D#9450
(002.176534) can0 014#01
(002.177469) can0 008#00
(002.178373) can0 055#00
(002.179440) can0 05B#228C
(002.179572) can0 00D#9450
(002.181538) can0 014#01
(002.182428) can0 008#00
(002.182547) can0 055#00
(002.184472) can0 05B#228C
(002.184604) can0 00D#9450
(002.184719) can0 015#01
(002.184850) can0 00E#9450
(002.184967) can0 016#1B
(002.185087) can0 041#00
(002.185212) can0 056#00
(002.186510) can0 014#01
(002.187449) can0 008#00
(002.187571) can0 055#00
(002.188431) can0 05B#228C
(002.189603) can0 00D#9450
(002.190489) can0 014#01
(002.191300) can0 008#00
(002.192506) can0 055#00
(002.193485) can0 05B#228C
(002.193617) can0 00D#9450
(002.195552) can0 014#01
(002.196402) can0 008#00
(002.197369) can0 055#00
(002.198677) can0 05B#228C
(002.198809) can0 00D#9450
(002.199561) can0 007#00
(002.199723) can0 05C#C86C8D3B
(002.199845) can0 016#1B
(002.199958) can0 015#01
(002.200079) can0 056#00
(002.200195) can0 05D#01
(002.200365) can0 014#01
(002.201318) can0 008#00
(002.201437) can0 055#00
(002.203460) can0 05B#228C
(002.203590) can0 00D#9450
(002.205696) can0 014#01
(002.206806) can0 008#00
(002.206929) can0 055#00
(002.207774) can0 05B#228C
(002.208825) can0 00D#9450
(002.209761) can0 014#01
(002.210810) can0 008#00
(002.211742) can0 055#00
(002.212878) can0 05B#228C
(002.213005) can0 00D#9450
(002.214778) can0 014#01
(002.214977) can0 007#00
(002.215146) can0 016#1B
(002.215269) can0 041#00
(002.215387) can0 05D#01
(002.215679) can0 008#00
(002.216860) can0 055#00
(002.217860) can0 05B#228C
(002.217991) can0 00D#9450
(002.219711) can0 014#01
(002.220899) can0 008#00
(002.221018) can0 055#00
(002.222890) can0 05B#758E
(002.223017) can0 00D#9450
(002.224956) can0 014#01
(002.225821) can0 008#00
(002.225944) can0 055#00
(002.226847) can0 05B#758E
(002.227836) can0 00D#9450
(002.228720) can0 014#01
(002.229766) can0 008#00
(002.229884) can0 007#00
(002.230008) can0 056#00
(002.230134) can0 00E#9450
(002.230551) can0 055#00
(002.231915) can0 05B#758E
(002.232048) can0 00D#9450
(002.233807) can0 014#01
(002.234771) can0 008#00
(002.235760) can0 055#00
(002.236703) can0 05B#758E
(002.236837) can0 00D#9450
(002.239077) can0 014#01
(002.239850) can0 008#00
(002.239973) can0 055#00
(002.241834) can0 05B#758E
(002.241963) can0 00D#9450
(002.243929) can0 014#01
(002.244640) can0 008#00
(002.244761) can0 055#00
(002.244871) can0 05D#01
(002.245051) can0 015#01
(002.245734) can0 05B#BB90
(002.246829) can0 00D#9450
(002.247641) can0 014#01
(002.248777) can0 008#00
(002.249793) can0 055#00
(002.250737) can0 05B#BB90
(002.250871) can0 00D#9450
(002.252873) can0 014#01
(002.253883) can0 008#00
(002.254962) can0 055#00
(002.255904) can0 05B#BB90
(002.256038) can0 00D#9450
(002.258055) can0 014#01
(002.259041) can0 008#00
(002.259159) can0 055#00
(002.259934) can0 016#1B
(002.260052) can0 041#00
(002.260196) can0 056#00
(002.260286) can0 007#00
(002.260449) can0 05C#B56EE03D
(002.260570) can0 016#1B
(002.260685) can0 05D#01
(002.260864) can0 05B#F192
(002.260991) can0 00D#9450
(002.263135) can0 014#01
(002.263707) can0 008#00
(002.263827) can0 055#00
(002.264981) can0 05B#F192
(002.265979) can0 00D#9450
(002.267060) can0 014#01
(002.267697) can0 008#00
(002.269166) can0 055#00
(002.269898) can0 05B#F192
(002.270032) can0 00D#9450
(002.272170) can0 014#01
(002.272961) can0 008#00
(002.273985) can0 055#00
(002.274835) can0 05B#F192
(002.274965) can0 00D#9450
(002.275080) can0 015#01
(002.275218) can0 056#00
(002.277012) can0 014#01
(002.278040) can0 008#00
(002.278164) can0 055#00
(002.280184) can0 05B#F192
(002.280317) can0 00D#9450
(002.282196) can0 014#01
(002.283107) can0 008#00
(002.283209) can0 055#00
(002.284259) can0 05B#F192
(002.285120) can0 00D#9450
(002.285987) can0 014#01
(002.287031) can0 008#00
(002.287999) can0 055#00
(002.289069) can0 05B#F192
(002.289201) can0 00D#9450
(002.289975) can0 007#00
(002.290093) can0 05D#01
(002.290211) can0 016#1B
(002.290333) can0 041#00
(002.290463) can0 00E#9450
(002.290583) can0 056#00
(002.290746) can0 05C#6D725C42
(002.291578) can0 014#01
(002.292548) can0 008#00
(002.293507) can0 055#00
(002.294681) can0 05B#1795
(002.294809) can0 00D#9450
(002.296729) can0 014#01
(002.298850) can0 008#00
(002.298970) can0 055#00
(002.303007) can0 05B#1795
(002.303138) can0 00D#9450
(002.304934) can0 014#01
(002.305534) can0 008#00
(002.305657) can0 055#00
(002.305941) can0 015#01
(002.306027) can0 016#1B
(002.306148) can0 007#00
(002.307242) can0 05B#1795
(002.307923) can0 00D#9450
(002.309106) can0 014#01
(002.310206) can0 008#00
(002.311166) can0 055#00
(002.312264) can0 05B#1795
(002.312392) can0 00D#9450
(002.314235) can0 014#01
(002.315053) can0 008#00
(002.316078) can0 055#00
(002.317178) can0 05B#2C97
(002.317307) can0 00D#9450
(002.319133) can0 014#01
(002.320217) can0 008#00
(002.320340) can0 055#00
(002.321318) can0 016#1B
(002.321440) can0 041#00
(002.321560) can0 056#00
(002.321678) can0 05D#01
(002.322137) can0 05B#2C97
(002.322262) can0 00D#9450
(002.324233) can0 014#01
(002.325351) can0 008#00
(002.325475) can0 055#00
(002.326354) can0 05B#2C97
(002.327263) can0 00D#9450
(002.328305) can0 014#01
(002.329348) can0 008#00
(002.330229) can0 055#00
(002.331368) can0 05B#2C97
(002.331494) can0 00D#9450
(002.333314) can0 014#01
(002.334325) can0 008#00
(002.335314) can0 055#00
(002.336190) can0 05B#2F99
(002.336324) can0 00D#9450
(002.336438) can0 007#00
(002.336550) can0 015#01
(002.336673) can0 056#00
(002.336798) can0 00E#9450
(002.338320) can0 014#01
(002.339372) can0 008#00
(002.339489) can0 055#00
(002.341533) can0 05B#2F99
(002.341656) can0 00D#9450
(002.343559) can0 014#01
(002.344438) can0 008#00
(002.344560) can0 055#00
(002.345266) can0 05B#2F99
(002.346307) can0 00D#9450
(002.347334) can0 014#01
(002.348257) can0 008#00
(002.349320) can0 055#00
(002.350275) can0 05B#1F9B
(002.350410) can0 00D#9450
(002.351362) can0 05D#01
(002.351480) can0 016#1B
(002.351598) can0 041#00
(002.351770) can0 05C#EE759746
(002.351889) can0 016#1B
(002.352286) can0 014#01
(002.353349) can0 008#00
(002.354445) can0 055#00
(002.355516) can0 05B#1F9B
(002.355641) can0 00D#9450
(002.357488) can0 014#01
(002.358289) can0 008#00
(002.358407) can0 055#00
(002.360531) can0 05B#1F9B
(002.360664) can0 00D#9450
(002.362520) can0 014#01
(002.363314) can0 008#00
(002.363434) can0 055#00
(002.364405) can0 05B#1F9B
(002.365324) can0 00D#9450
(002.366438) can0 014#01
(002.366561) can0 056#00
(002.366676) can0 007#00
(002.366806) can0 015#01
(002.366945) can0 05D#01
(002.367183) can0 008#00
(002.368282) can0 055#00
(002.369334) can0 05B#1F9B
(002.369466) can0 00D#9450
(002.371517) can0 014#01
(002.372138) can0 008#00
(002.373613) can0 055#00
(002.374191) can0 05B#FD9C
(002.374322) can0 00D#9450
(002.376454) can0 014#01
(002.377322) can0 008#00
(002.377448) can0 055#00
(002.379540) can0 05B#C89E
(002.379671) can0 00D#9450
(002.381471) can0 014#01
(002.381691) can0 016#1B
(002.381815) can0 041#00
(002.381929) can0 007#00
(002.382059) can0 056#00
(002.382177) can0 00E#9450
(002.382307) can0 008#00
(002.382416) can0 055#00
(002.382536) can0 05D#01
(002.383652) can0 05B#81A0
(002.384467) can0 00D#9450
(002.385603) can0 014#01
(002.386562) can0 008#00
(002.387640) can0 055#00
(002.388517) can0 05B#81A0
(002.388650) can0 00D#9450
(002.390758) can0 014#01
(002.392676) can0 008#00
(002.394657) can0 055#00
(002.395629) can0 05B#81A0
(002.395761) can0 00D#9450
(002.397457) can0 014#01
(002.397577) can0 015#01
(002.397697) can0 056#00
(002.397863) can0 05C#3D7C334E
(002.397983) can0 016#1B
(002.398099) can0 016#1B
(002.398218) can0 041#00
(002.398952) can0 008#00
(002.399075) can0 055#00
(002.401122) can0 05B#27A2
(002.401249) can0 00D#9450
(002.403200) can0 014#01
(002.403726) can0 008#00
(002.403979) can0 055#00
(002.404992) can0 05B#27A2
(002.406007) can0 00D#9450
(002.406956) can0 014#01
(002.407841) can0 008#00
(002.409004) can0 055#00
(002.410019) can0 05B#27A2
(002.410156) can0 00D#9450
(002.411925) can0 014#01
(002.412956) can0 008#00
(002.413073) can0 007#00
(002.413191) can0 056#00
(002.413310) can0 015#01
(002.413438) can0 00E#9450
(002.413556) can0 05D#01
(002.414004) can0 055#00
(002.415013) can0 05B#BCA3
(002.415173) can0 00D#9450
(002.417238) can0 014#01
(002.417865) can0 008#00
(002.418041) can0 055#00
(002.420286) can0 05B#3FA5
(002.420429) can0 00D#9450
(002.422225) can0 014#01
(002.422967) can0 008#00
(002.423109) can0 055#00
(002.424147) can0 05B#3FA5
(002.424879) can0 00D#9450
(002.426098) can0 014#01
(002.427014) can0 008#00
(002.428075) can0 055#00
(002.428320) can0 016#1B
(002.428407) can0 041#00
(002.428526) can0 056#00
(002.428907) can0 05B#13A8
(002.429040) can0 00D#9450
(002.431227) can0 014#01
(002.432047) can0 008#00
(002.433067) can0 055#00
(002.434022) can0 05B#13A8
(002.434174) can0 00D#9450
(002.436237) can0 014#01
(002.437073) can0 008#00
(002.437191) can0 055#00
(002.439200) can0 05B#13A8
(002.439333) can0 00D#9450
(002.441090) can0 014#01
(002.442034) can0 008#00
(002.442153) can0 055#00
(002.443163) can0 05B#66A9
(002.443970) can0 00D#9450
(002.444189) can0 007#00
(002.444306) can0 05D#01
(002.444473) can0 05C#99819251
(002.444590) can0 016#1B
(002.444711) can0 05D#01
(002.445028) can0 014#01
(002.446356) can0 008#00
(002.446960) can0 055#00
(002.448470) can0 05B#A9AA
(002.448600) can0 00D#9450
(002.450354) can0 014#01
(002.451803) can0 008#00
(002.452539) can0 055#00
(002.453495) can0 05B#A9AA
(002.453619) can0 00D#9450
(002.455650) can0 014#01
(002.456766) can0 008#00
(002.456886) can0 055#00
(002.458757) can0 05B#A9AA
(002.458891) can0 00D#9450
(002.459004) can0 015#01
(002.459144) can0 056#00
(002.459237) can0 007#00
(002.460864) can0 014#01
(002.462021) can0 008#00
(002.462141) can0 055#00
(002.463299) can0 05B#A9AA
(002.464573) can0 00D#9450
(002.465465) can0 014#01
(002.466511) can0 008#00
(002.467428) can0 055#00
(002.468706) can0 05B#A9AA
(002.468839) can0 00D#9450
(002.470696) can0 014#01
(002.471581) can0 008#00
(002.472816) can0 055#00
(002.474045) can0 05B#A9AA
(002.474179) can0 00D#9450
(002.474294) can0 016#1B
(002.474425) can0 041#00
(002.474534) can0 056#00
(002.474662) can0 00E#9450
(002.474787) can0 05D#01
(002.476378) can0 014#01
(002.477413) can0 008#00
(002.477536) can0 055#00
(002.479497) can0 05B#A9AA
(002.479632) can0 00D#9450
(002.481414) can0 014#01
(002.482407) can0 008#00
(002.482531) can0 055#00
(002.483728) can0 05B#DEAB
(002.484791) can0 00D#9450
(002.485734) can0 014#01
(002.486669) can0 008#00
(002.487676) can0 055#00
(002.488622) can0 05B#DEAB
(002.488756) can0 00D#9450
(002.489795) can0 015#01
(002.489914) can0 007#00
(002.490075) can0 05C#1687145A
(002.490613) can0 014#01
(002.491827) can0 008#00
(002.492649) can0 055#00
(002.493754) can0 05B#DEAB
(002.493884) can0 00D#9450
(002.495780) can0 014#01
(002.496716) can0 008#00
(002.496835) can0 055#00
(002.498866) can0 05B#06AD
(002.498992) can0 00D#9450
(002.500846) can0 014#01
(002.501760) can0 008#00
(002.501880) can0 055#00
(002.502906) can0 05B#06AD
(002.503909) can0 00D#9450
(002.504840) can0 014#01
(002.504960) can0 016#1B
(002.505078) can0 041#00
(002.505200) can0 056#00
(002.505316) can0 016#1B
(002.505436) can0 05D#01
(002.505744) can0 008#00
(002.506880) can0 055#00
(002.508419) can0 05B#06AD
(002.508554) can0 00D#9450
(002.510348) can0 014#01
(002.511521) can0 008#00
(002.512595) can0 055#00
(002.513671) can0 05B#06AD
(002.513801) can0 00D#9450
(002.515799) can0 014#01
(002.516649) can0 008#00
(002.516771) can0 055#00
(002.518799) can0 05B#06AD
(002.518924) can0 00D#9450
(002.519713) can0 015#01
(002.519828) can0 007#00
(002.519951) can0 056#00
(002.520068) can0 016#1B
(002.520191) can0 041#00
(002.520319) can0 00E#9450
(002.520438) can0 05D#01
(002.520627) can0 014#01
(002.521648) can0 008#00
(002.521767) can0 055#00
(002.522599) can0 05B#06AD
(002.523564) can0 00D#9450
(002.524824) can0 014#01
(002.525604) can0 008#00
(002.526665) can0 055#00
(002.527824) can0 05B#06AD
(002.527958) can0 00D#9450
(002.529990) can0 014#01
(002.530746) can0 008#00
(002.531927) can0 055#00
(002.532850) can0 05B#06AD
(002.532975) can0 00D#9450
(002.535146) can0 056#00
(002.535211) can0 007#00
(002.535350) can0 014#01
(002.535504) can0 05C#0B88715C
(002.535622) can0 016#1B
(002.535742) can0 008#00
(002.535857) can0 055#00
(002.535978) can0 05D#01
(002.538046) can0 05B#06AD
(002.538178) can0 00D#9450
(002.539925) can0 014#01
(002.540795) can0 008#00
(002.540920) can0 055#00
(002.541812) can0 05B#47AE
(002.542891) can0 00D#9450
(002.543819) can0 014#01
(002.545120) can0 008#00
(002.545903) can0 055#00
(002.546861) can0 05B#47AE
(002.546994) can0 00D#9450
(002.549091) can0 014#01
(002.549796) can0 008#00
(002.550964) can0 055#00
(002.551081) can0 015#01
(002.551701) can0 05B#47AE
(002.551831) can0 00D#9450
(002.554027) can0 014#01
(002.554774) can0 008#00
(002.554901) can0 055#00
(002.556913) can0 05B#47AE
(002.557044) can0 00D#9450
(002.559072) can0 014#01
(002.559989) can0 008#00
(002.560113) can0 055#00
(002.561044) can0 05B#47AE
(002.561954) can0 00D#9450
(002.562950) can0 014#01
(002.563851) can0 008#00
(002.565031) can0 055#00
(002.565794) can0 05B#47AE
(002.565925) can0 00D#9450
(002.566056) can0 016#1B
(002.566160) can0 007#00
(002.566285) can0 041#00
(002.566401) can0 056#00
(002.566521) can0 05D#01
(002.568285) can0 014#01
(002.569125) can0 008#00
(002.570411) can0 055#00
(002.571261) can0 05B#60AF
(002.571395) can0 00D#9450
(002.573500) can0 014#01
(002.574636) can0 008#00
(002.574758) can0 055#00
(002.576868) can0 05B#60AF
(002.576990) can0 00D#9450
(002.578936) can0 014#01
(002.580059) can0 008#00
(002.580183) can0 055#00
(002.581017) can0 05B#60AF
(002.581129) can0 007#00
(002.581264) can0 00E#9450
(002.581373) can0 015#01
(002.581501) can0 056#00
(002.581611) can0 05D#01
(002.582485) can0 00D#9450
(002.583568) can0 014#01
(002.584381) can0 008#00
(002.585542) can0 055#00
(002.586629) can0 05B#ACB0
(002.586766) can0 00D#9450
(002.588676) can0 014#01
(002.589593) can0 008#00
(002.590613) can0 055#00
(002.591508) can0 05B#ACB0
(002.591635) can0 00D#9450
(002.593698) can0 014#01
(002.593815) can0 008#00
(002.593939) can0 055#00
(002.596153) can0 05B#ACB0
(002.596287) can0 00D#9450
(002.596396) can0 007#00
(002.596517) can0 016#1B
(002.596651) can0 041#00
(002.596812) can0 05C#FE89CB5E
(002.596926) can0 016#1B
(002.597043) can0 05D#01
(002.598448) can0 014#01
(002.599375) can0 008#00
(002.599546) can0 055#00
(002.600942) can0 05B#ACB0
(002.601772) can0 00D#9450
(002.602994) can0 014#01
(002.603875) can0 008#00
(002.604885) can0 055#00
(002.605916) can0 05B#ACB0
(002.606049) can0 00D#9450
(002.608061) can0 014#01
(002.609012) can0 008#00
(002.609921) can0 055#00
(002.610903) can0 05B#ACB0
(002.611035) can0 00D#9450
(002.611918) can0 056#00
(002.612054) can0 007#00
(002.612156) can0 015#01
(002.612274) can0 05D#01
(002.613241) can0 014#01
(002.614301) can0 008#00
(002.614424) can0 055#00
(002.616338) can0 05B#ACB0
(002.616471) can0 00D#9450
(002.618434) can0 014#01
(002.619392) can0 008#00
(002.619511) can0 055#00
(002.620541) can0 05B#ACB0
(002.621441) can0 00D#9450
(002.622397) can0 014#01
(002.623551) can0 008#00
(002.624395) can0 055#00
(002.625522) can0 05B#ACB0
(002.625651) can0 00D#9450
(002.627550) can0 014#01
(002.627822) can0 016#1B
(002.627949) can0 041#00
(002.628071) can0 056#00
(002.628192) can0 00E#9450
(002.628953) can0 008#00
(002.629893) can0 055#00
(002.630900) can0 05B#ACB0
(002.631038) can0 00D#9450
(002.633078) can0 014#01
(002.634000) can0 008#00
(002.634119) can0 055#00
(002.636143) can0 05B#ACB0
(002.636276) can0 00D#9450
(002.638300) can0 014#01
(002.639293) can0 008#00
(002.639411) can0 055#00
(002.640264) can0 05B#B5B1
(002.641313) can0 00D#9450
(002.642484) can0 014#01
(002.643196) can0 008#00
(002.643315) can0 007#00
(002.643435) can0 015#01
(002.643550) can0 056#00
(002.643717) can0 05C#118B1760
(002.643833) can0 05D#01
(002.643951) can0 016#1B
(002.644074) can0 016#1B
(002.644195) can0 041#00
(002.644525) can0 055#00
(002.645984) can0 05B#B5B1
(002.646118) can0 00D#9450
(002.648015) can0 014#01
(002.649279) can0 008#00
(002.649902) can0 055#00
(002.651298) can0 05B#B5B1
(002.651432) can0 00D#9450
(002.653210) can0 014#01
(002.654236) can0 008#00
(002.654357) can0 055#00
(002.656252) can0 05B#0BB3
(002.656385) can0 00D#9450
(002.658208) can0 014#01
(002.658358) can0 056#00
(002.658634) can0 007#00
(002.658757) can0 05D#01
(002.659468) can0 008#00
(002.659588) can0 055#00
(002.660388) can0 05B#0BB3
(002.661351) can0 00D#9450
(002.662342) can0 014#01
(002.663420) can0 008#00
(002.664340) can0 055#00
(002.665411) can0 05B#0BB3
(002.665540) can0 00D#9450
(002.667641) can0 014#01
(002.668311) can0 008#00
(002.669354) can0 055#00
(002.670463) can0 05B#0BB3
(002.670595) can0 00D#9450
(002.672653) can0 014#01
(002.673497) can0 007#00
(002.673616) can0 008#00
(002.673737) can0 015#01
(002.673864) can0 00E#9450
(002.673980) can0 055#00
(002.675515) can0 05B#0BB3
(002.675646) can0 00D#9450
(002.677333) can0 014#01
(002.678372) can0 008#00
(002.678496) can0 055#00
(002.679449) can0 05B#0BB3
(002.680521) can0 00D#9450
(002.681372) can0 014#01
(002.682433) can0 008#00
(002.683367) can0 055#00
(002.684380) can0 05B#0BB3
(002.684515) can0 00D#9450
(002.686597) can0 014#01
(002.687220) can0 008#00
(002.688777) can0 055#00
(002.688897) can0 016#1B
(002.689020) can0 041#00
(002.689136) can0 056#00
(002.689304) can0 05C#088D7662
(002.689421) can0 05D#01
(002.690267) can0 05B#6FB4
(002.690403) can0 00D#9450
(002.692385) can0 014#01
(002.693251) can0 008#00
(002.693370) can0 055#00
(002.695475) can0 05B#6FB4
(002.695606) can0 00D#9450
(002.697811) can0 014#01
(002.699166) can0 008#00
(002.699302) can0 055#00
(002.699832) can0 05B#6FB4
(002.700933) can0 00D#9450
(002.702046) can0 014#01
(002.702714) can0 008#00
(002.703947) can0 055#00
(002.704113) can0 007#00
(002.704231) can0 016#1B
(002.704347) can0 05D#01
(002.704693) can0 05B#6FB4
(002.704827) can0 00D#9450
(002.707123) can0 014#01
(002.707845) can0 008#00
(002.708990) can0 055#00
(002.709968) can0 05B#4AB6
(002.710100) can0 00D#9450
(002.712120) can0 014#01
(002.712959) can0 008#00
(002.713082) can0 055#00
(002.715194) can0 05B#4AB6
(002.715325) can0 00D#9450
(002.717237) can0 014#01
(002.717852) can0 008#00
(002.718154) can0 055#00
(002.719042) can0 05B#4AB6
(002.719814) can0 00D#9450
(002.720123) can0 015#01
(002.720239) can0 056#00
(002.720814) can0 014#01
(002.722110) can0 008#00
(002.722933) can0 055#00
(002.723867) can0 05B#4AB6
(002.724002) can0 00D#9450
(002.726090) can0 014#01
(002.726733) can0 008#00
(002.728009) can0 055#00
(002.728896) can0 05B#4AB6
(002.729022) can0 00D#9450
(002.731127) can0 014#01
(002.732292) can0 008#00
(002.732413) can0 055#00
(002.734324) can0 05B#4AB6
(002.734456) can0 00D#9450
(002.735199) can0 007#00
(002.735313) can0 016#1B
(002.735437) can0 041#00
(002.735554) can0 056#00
(002.735687) can0 00E#9450
(002.735802) can0 05D#01
(002.736555) can0 014#01
(002.737543) can0 008#00
(002.737755) can0 055#00
(002.739060) can0 05B#4AB6
(002.740082) can0 00D#9450
(002.741159) can0 014#01
(002.742095) can0 008#00
(002.743140) can0 055#00
(002.744168) can0 05B#4AB6
(002.744302) can0 00D#9450
(002.746237) can0 014#01
(002.747030) can0 008#00
(002.748216) can0 055#00
(002.749122) can0 05B#4AB6
(002.749254) can0 00D#9450
(002.751006) can0 014#01
(002.751199) can0 007#00
(002.751319) can0 05D#01
(002.751480) can0 015#01
(002.751649) can0 05C#B98FB565
(002.751765) can0 016#1B
(002.752010) can0 008#00
(002.752128) can0 055#00
(002.754050) can0 05B#4AB6
(002.754182) can0 00D#9450
(002.756222) can0 014#01
(002.757135) can0 008#00
(002.757252) can0 055#00
(002.758202) can0 05B#4AB6
(002.759169) can0 00D#9450
(002.760149) can0 014#01
(002.761156) can0 008#00
(002.762437) can0 055#00
(002.763504) can0 05B#4AB6
(002.763637) can0 00D#9450
(002.765641) can0 014#01
(002.766368) can0 008#00
(002.766484) can0 007#00
(002.766602) can0 016#1B
(002.766723) can0 041#00
(002.766844) can0 056#00
(002.766961) can0 05D#01
(002.767466) can0 055#00
(002.768755) can0 05B#4AB6
(002.768888) can0 00D#9450
(002.770876) can0 014#01
(002.771579) can0 008#00
(002.771701) can0 055#00
(002.774869) can0 05B#27B7
(002.774998) can0 00D#9450
(002.777043) can0 014#01
(002.777928) can0 008#00
(002.778052) can0 055#00
(002.779070) can0 05B#27B7
(002.780033) can0 00D#9450
(002.780983) can0 014#01
(002.781870) can0 008#00
(002.782044) can0 015#01
(002.782157) can0 007#00
(002.782279) can0 056#00
(002.782407) can0 00E#9450
(002.782527) can0 05D#01
(002.782732) can0 055#00
(002.783840) can0 05B#27B7
(002.783969) can0 00D#9450
(002.785717) can0 014#01
(002.786968) can0 008#00
(002.788357) can0 055#00
(002.789770) can0 05B#27B7
(002.789898) can0 00D#9450
(002.791525) can0 014#01
(002.792788) can0 008#00
(002.792907) can0 055#00
(002.795154) can0 05B#27B7
(002.795283) can0 00D#9450
(002.797094) can0 014#01
(002.797220) can0 016#1B
(002.797342) can0 041#00
(002.797463) can0 056#00
(002.797627) can0 05C#70909266
(002.797744) can0 016#1B
(002.798697) can0 008#00
(002.798816) can0 055#00
(002.799929) can0 05B#86B8
(002.801190) can0 00D#9450
(002.802293) can0 014#01
(002.803186) can0 008#00
(002.804064) can0 055#00
(002.805102) can0 05B#86B8
(002.805232) can0 00D#9450
(002.807349) can0 014#01
(002.808369) can0 008#00
(002.809363) can0 055#00
(002.810332) can0 05B#86B8
(002.810455) can0 00D#9450
(002.813039) can0 014#01
(002.813321) can0 007#00
(002.813439) can0 05D#01
(002.813554) can0 015#01
(002.813783) can0 008#00
(002.813901) can0 055#00
(002.816240) can0 05B#86B8
(002.816374) can0 00D#9450
(002.818332) can0 014#01
(002.818872) can0 008#00
(002.818983) can0 055#00
(002.820016) can0 05B#86B8
(002.820972) can0 00D#9450
(002.822042) can0 014#01
(002.823029) can0 008#00
(002.824249) can0 055#00
(002.824965) can0 05B#F0B9
(002.825096) can0 00D#9450
(002.827236) can0 014#01
(002.828185) can0 016#1B
(002.828300) can0 007#00
(002.828417) can0 008#00
(002.828539) can0 041#00
(002.828659) can0 056#00
(002.828789) can0 00E#9450
(002.828910) can0 055#00
(002.829030) can0 05D#01
(002.830289) can0 05B#F0B9
(002.830418) can0 00D#9450
(002.832160) can0 014#01
(002.833019) can0 008#00
(002.833143) can0 055#00
(002.835380) can0 05B#F0B9
(002.835511) can0 00D#9450
(002.837425) can0 014#01
(002.838307) can0 008#00
(002.838428) can0 055#00
(002.839347) can0 05B#F0B9
(002.840494) can0 00D#9450
(002.841249) can0 014#01
(002.842529) can0 008#00
(002.843244) can0 055#00
(002.843407) can0 007#00
(002.843522) can0 015#01
(002.843648) can0 056#00
(002.844771) can0 05B#F0B9
(002.844905) can0 00D#9450
(002.846963) can0 014#01
(002.847929) can0 008#00
(002.848792) can0 055#00
(002.849916) can0 05B#F0B9
(002.850049) can0 00D#9450
(002.851623) can0 014#01
(002.852939) can0 008#00
(002.853056) can0 055#00
(002.854851) can0 05B#F0B9
(002.854980) can0 00D#9450
(002.856794) can0 014#01
(002.858032) can0 008#00
(002.858149) can0 055#00
(002.859195) can0 016#1B
(002.859315) can0 041#00
(002.859450) can0 05B#65BB
(002.859613) can0 05C#BF925B69
(002.859735) can0 05D#01
(002.859849) can0 016#1B
(002.859978) can0 056#00
(002.860320) can0 00D#9450
(002.861362) can0 014#01
(002.862295) can0 008#00
(002.863404) can0 055#00
(002.864493) can0 05B#65BB
(002.864623) can0 00D#9450
(002.866610) can0 014#01
(002.867807) can0 008#00
(002.868779) can0 055#00
(002.869775) can0 05B#65BB
(002.869906) can0 00D#9450
(002.871754) can0 014#01
(002.872723) can0 008#00
(002.872847) can0 055#00
(002.874820) can0 05B#E5BC
(002.874950) can0 00D#9450
(002.875066) can0 007#00
(002.875196) can0 05D#01
(002.875303) can0 015#01
(002.876925) can0 014#01
(002.877592) can0 008#00
(002.877805) can0 055#00
(002.878962) can0 05B#E5BC
(002.880612) can0 00D#9450
(002.881459) can0 014#01
(002.882419) can0 008#00
(002.883493) can0 055#00
(002.884420) can0 05B#E5BC
(002.884548) can0 00D#9450
(002.886660) can0 014#01
(002.887560) can0 008#00
(002.888482) can0 055#00
(002.889460) can0 05B#E5BC
(002.889593) can0 00D#9450
(002.890782) can0 016#1B
(002.890907) can0 041#00
(002.891029) can0 056#00
(002.891159) can0 00E#9450
(002.891407) can0 014#01
(002.892998) can0 008#00
(002.893118) can0 055#00
(002.895769) can0 05B#E5BC
(002.895903) can0 00D#9450
(002.898710) can0 014#01
(002.899398) can0 008#00
(002.899516) can0 055#00
(002.900540) can0 05B#E5BC
(002.901594) can0 00D#9450
(002.902447) can0 014#01
(002.903576) can0 008#00
(002.904333) can0 055#00
(002.905583) can0 05B#9CBD
(002.905697) can0 007#00
(002.905829) can0 00D#9450
(002.905992) can0 05C#3395D06A
(002.906113) can0 05D#01
(002.907441) can0 014#01
(002.908905) can0 008#00
(002.909857) can0 055#00
(002.910764) can0 05B#9CBD
(002.910894) can0 00D#9450
(002.912989) can0 014#01
(002.913832) can0 008#00
(002.913952) can0 055#00
(002.916134) can0 05B#9CBD
(002.916263) can0 00D#9450
(002.918231) can0 014#01
(002.919010) can0 008#00
(002.919139) can0 055#00
(002.920196) can0 05B#9CBD
(002.921043) can0 00D#9450
(002.921158) can0 007#00
(002.921275) can0 015#01
(002.921398) can0 056#00
(002.921512) can0 016#1B
(002.921634) can0 016#1B
(002.921752) can0 041#00
(002.921870) can0 05D#01
(002.922214) can0 014#01
(002.923302) can0 008#00
(002.924258) can0 055#00
(002.925410) can0 05B#9CBD
(002.925540) can0 00D#9450
(002.927238) can0 014#01
(002.928406) can0 008#00
(002.929329) can0 055#00
(002.930397) can0 05B#3CC2
(002.930527) can0 00D#9450
(002.932521) can0 014#01
(002.933389) can0 008#00
(002.933507) can0 055#00
(002.935339) can0 05B#3CC2
(002.935472) can0 00D#9450
(002.936545) can0 007#00
(002.936668) can0 056#00
(002.936784) can0 05D#01
(002.937285) can0 014#01
(002.938396) can0 008#00
(002.938514) can0 055#00
(002.939311) can0 05B#3CC2
(002.940379) can0 00D#9450
(002.941641) can0 014#01
(002.942361) can0 008#00
(002.943450) can0 055#00
(002.944384) can0 05B#3CC2
(002.944503) can0 00D#9450
(002.946392) can0 014#01
(002.947337) can0 008#00
(002.948474) can0 055#00
(002.949504) can0 05B#3CC2
(002.949632) can0 00D#9450
(002.951424) can0 014#01
(002.951585) can0 015#01
(002.951715) can0 00E#9450
(002.951831) can0 007#00
(002.951949) can0 016#1B
(002.952072) can0 041#00
(002.952191) can0 056#00
(002.952359) can0 05C#A099A771
(002.952477) can0 016#1B
(002.952595) can0 05D#01
(002.952713) can0 008#00
(002.952835) can0 055#00
(002.955147) can0 05B#3CC2
(002.955249) can0 00D#9450
(002.956909) can0 014#01
(002.957879) can0 008#00
(002.958003) can0 055#00
(002.959008) can0 05B#D9C3
(002.959941) can0 00D#9450
(002.960949) can0 014#01
(002.961892) can0 008#00
(002.962902) can0 055#00
(002.963781) can0 05B#60C4
(002.963910) can0 00D#9450
(002.966012) can0 014#01
(002.966812) can0 008#00
(002.967004) can0 015#01
(002.967126) can0 056#00
(002.967619) can0 007#00
(002.967739) can0 05D#01
(002.968153) can0 055#00
(002.969243) can0 05B#60C4
(002.969372) can0 00D#9450
(002.971303) can0 014#01
(002.972252) can0 008#00
(002.972369) can0 055#00
(002.974226) can0 05B#60C4
(002.974357) can0 00D#9450
(002.976377) can0 014#01
(002.977294) can0 008#00
(002.977414) can0 055#00
(002.978300) can0 05B#60C4
(002.979152) can0 00D#9450
(002.980208) can0 014#01
(002.981291) can0 008#00
(002.982201) can0 007#00
(002.982317) can0 05D#01
(002.982438) can0 016#1B
(002.982558) can0 041#00
(002.982690) can0 00E#9450
(002.982807) can0 055#00
(002.982932) can0 056#00
(002.983170) can0 05B#60C4
(002.983298) can0 00D#9450
(002.985347) can0 014#01
(002.986111) can0 008#00
(002.987340) can0 055#00
(002.988327) can0 05B#60C4
(002.988457) can0 00D#9450
(002.990730) can0 014#01
(002.991401) can0 008#00
(002.991522) can0 055#00
(002.993768) can0 05B#60C4
(002.993896) can0 00D#9450
(002.996071) can0 014#01
(002.996889) can0 008#00
(002.997013) can0 055#00
(002.997677) can0 05B#60C4
(002.997805) can0 015#01
(002.997968) can0 05C#669BCB73
(002.998087) can0 016#1B
(002.998203) can0 007#00
(002.998321) can0 016#1B
(002.998443) can0 041#00
(002.998563) can0 056#00
(002.998681) can0 05D#01
(002.998882) can0 00D#9450
(003.000199) can0 014#01
(003.001077) can0 008#00
(003.002172) can0 055#00
(003.003130) can0 05B#E0C4
(003.003225) can0 00D#9450
(003.005266) can0 014#01
(003.006006) can0 008#00
(003.007109) can0 055#00
(003.008198) can0 05B#6FC6
(003.008325) can0 00D#9450
(003.010186) can0 014#01
(003.011174) can0 008#00
