(077.199712) can0 055#00
(077.199944) can0 00E#FC18B4987782C3C2
(077.200263) can0 076#DE5C7BD3F6
(077.200498) can0 03A#AB
(077.200650) can0 05B#4B1A
(077.200781) can0 00D#0000
(077.200962) can0 048#5C4407DF9C
(077.201281) can0 05D#0598AB2EF68A
(077.202798) can0 014#01
(077.203237) can0 04B#F1F0D79A0C64459C
(077.203571) can0 0A6#93A90072
(077.203650) can0 008#00
(077.203957) can0 059#BCF607CF1358
(077.204346) can0 068#7DF60CA347535C04
(077.204448) can0 055#00
(077.204729) can0 048#C3AF9949
(077.205194) can0 0BD#FA4D73FBA860
(077.205614) can0 04F#D720D7
(077.205831) can0 05B#4B1A
(077.205959) can0 00D#0000
(077.206146) can0 0A6#9F58AB09D188
(077.206597) can0 028#4CDF77
(077.206968) can0 077#677FCA03C02C
(077.207139) can0 007#00
(077.207255) can0 015#00
(077.207459) can0 07F#EC4298948F
(077.207561) can0 014#01
(077.207673) can0 016#00
(077.207792) can0 041#00
(077.207970) can0 05C#00000000
(077.208089) can0 056#00
(077.208250) can0 05C#3C324A1A
(077.208366) can0 016#00
(077.208479) can0 008#00
(077.208608) can0 055#00
(077.208716) can0 05D#01
(077.208882) can0 083#61C7AA6A
(077.209349) can0 065#A7
(077.209730) can0 0B6#296416BD
(077.210132) can0 0C2#633BBE06834BD93C
(077.210493) can0 0C0#F8363A9DA81F
(077.210613) can0 05B#4B1A
(077.210740) can0 00D#0000
(077.210955) can0 091#549156DB43FB
(077.211266) can0 064#1C7E7CB3B3
(077.211531) can0 055#6F
(077.211885) can0 089#18700D5C817E
(077.212207) can0 082#7071EE
(077.212542) can0 098#DA5C6AE8
(077.212651) can0 014#01
(077.212898) can0 0B2#6335
(077.213272) can0 0A0#B9F1F3FBB46760D7
(077.213672) can0 008#00
(077.213742) can0 055#00
(077.214010) can0 009#CCB0
(077.214334) can0 060#93DBEEF6
(077.214464) can0 05B#4B1A
(077.214739) can0 094#EBF661C1
(077.215044) can0 041#F8CE9A2989
(077.215475) can0 0C5#5D77052F18C7D4B5
(077.215829) can0 00D#0000
(077.216043) can0 0BE#E400BE387EE2C2
(077.216653) can0 014#01
(077.216708) can0 083#16
(077.217436) can0 07D#D83F83
(077.217765) can0 008#00
(077.217980) can0 096#A1
(077.218448) can0 055#00
(077.218787) can0 014#3AF0EB23F777F3
(077.219212) can0 08E#63
(077.219585) can0 05B#4B1A
(077.219738) can0 00D#0000
(077.219983) can0 095#B210D194
(077.220776) can0 026#4719C7C82326
(077.221225) can0 0AB#7B4F3EBC
(077.221435) can0 014#01
(077.221687) can0 00F#8ACDDDE3
(077.222183) can0 01A#EF5575
(077.222593) can0 008#00
(077.222879) can0 07D#3A319DAF96EDC588
(077.222977) can0 056#00
(077.223089) can0 015#01
(077.223205) can0 016#00
(077.223323) can0 041#00
(077.223473) can0 055#00
(077.223613) can0 07A#10A075DA
(077.223749) can0 007#00
(077.223868) can0 06A#5D
(077.224108) can0 07F#EE20
(077.224304) can0 05D#01
(077.224437) can0 02D#7A9785
(077.224645) can0 05B#4B1A
(077.224767) can0 00D#0000
(077.224887) can0 0A7#F8DC
(077.225469) can0 055#24661E60
(077.225993) can0 070#978C
(077.226554) can0 06F#5830F8FB434F0F
(077.226911) can0 0B6#024E10FD358E52
(077.227014) can0 014#01
(077.227316) can0 076#CF14C68F1D7E
(077.227579) can0 021#617613
(077.227693) can0 008#00
(077.227811) can0 055#00
(077.227948) can0 0C2#17AE86
(077.228258) can0 0BA#5EB22884
(077.228611) can0 0C8#67A85A02E73EA6
(077.228982) can0 05A#FEC1C953EDD5
(077.229353) can0 05A#D089ECF2EC5F7818
(077.229620) can0 051#CE28
(077.229766) can0 05B#4B1A
(077.229893) can0 00D#0000
(077.230102) can0 07F#21D197BC1532E5
(077.230459) can0 0C5#6F4F4D03370ABA88
(077.230707) can0 06E#76AA
(077.230994) can0 007#0CF0F67648
(077.231365) can0 009#238C1CCA87855416
(077.231716) can0 014#01
(077.232013) can0 04A#D2BD33
(077.232362) can0 070#2235E66C10A8
(077.232655) can0 074#7AF40CD7
(077.232802) can0 008#00
(077.232905) can0 055#00
(077.233037) can0 05A#FE
(077.233308) can0 059#3478A2C9
(077.233693) can0 05B#4B1A
(077.233807) can0 0A7#C494EF94
(077.234168) can0 0C6#1909397276BE
(077.234604) can0 00D#0000
(077.234698) can0 099#48
(077.235401) can0 028#5195B3F95CD5597B
(077.235645) can0 014#01
(077.235929) can0 02E#4F4EF24A4D
(077.236440) can0 026#495A1628
(077.236609) can0 008#00
(077.236865) can0 02B#76
(077.237572) can0 09B#0E49BEDB34926F74
(077.237658) can0 055#00
(077.238066) can0 00B#8091DA5705AE
(077.238541) can0 0B6#DF
(077.239089) can0 05B#4B1A
(077.239172) can0 00D#0000
(077.239322) can0 089#C941A8
(077.239529) can0 056#00
(077.239693) can0 05C#3C324A1A
(077.239787) can0 007#00
(077.239900) can0 016#00
(077.240024) can0 05D#01
(077.240202) can0 06B#9692397113
(077.240442) can0 09E#A7
(077.240691) can0 014#01
(077.241160) can0 041#DCFB7CECC521
(077.241592) can0 008#00
(077.241818) can0 0BB#A4686CBE7207076A
(077.242555) can0 055#00
(077.242615) can0 01A#DFDD39
(077.243250) can0 0B8#07
(077.243773) can0 05B#4B1A
(077.243891) can0 00D#0000
(077.244003) can0 013#B0BD
(077.244404) can0 068#8C7A7D17
(077.244928) can0 001#2750CD
(077.245518) can0 00B#7A4F
(077.245708) can0 014#01
(077.246241) can0 0C1#82D3FDFF3052DE
(077.246845) can0 09A#EE3852F083B576D6
(077.246928) can0 008#00
(077.247069) can0 055#00
(077.247358) can0 01E#73D74429A1
(077.247924) can0 0C4#B8B923
(077.248365) can0 004#FD
(077.248688) can0 01A#7F258DB96D
(077.248872) can0 05B#4B1A
(077.249085) can0 00E#319CBB68B48A2B24
(077.249235) can0 00D#0000
(077.249350) can0 009#5E72
(077.249748) can0 067#E90146ADFABCD4
(077.250130) can0 062#7BF8DEFCC2E707
(077.250656) can0 0A5#AE
(077.250815) can0 014#01
(077.251133) can0 00F#C5B6E7A7D4CF32
(077.251877) can0 099#445A77F405180E30
(077.251947) can0 008#00
(077.252089) can0 055#00
(077.252584) can0 0C8#D0EB19A9068B1007
(077.252852) can0 05B#4B1A
(077.252975) can0 0A3#7A48
(077.253665) can0 021#57D6208BAA7A61
(077.253797) can0 00D#0000
(077.254154) can0 06F#205433A1016CB2
(077.254275) can0 007#00
(077.254422) can0 015#01
(077.254500) can0 016#00
(077.254696) can0 027#F10128A652
(077.254825) can0 014#01
(077.254932) can0 041#00
(077.255045) can0 056#00
(077.255152) can0 0B7#16
(077.255614) can0 06E#7678509135FB2477
(077.255782) can0 008#00
(077.255914) can0 085#FD57CE
(077.256252) can0 0C4#37A386B887557F
(077.256563) can0 015#FB53F8544F
(077.256747) can0 055#00
(077.256854) can0 0A5#C4B0
(077.257068) can0 029#26
(077.257377) can0 05B#3F76F14930D5AB
(077.257714) can0 000#A82634136178
(077.257894) can0 05B#4B1A
(077.257990) can0 005#56
(077.258143) can0 00D#0000
(077.258274) can0 0BC#D9F781
(077.258556) can0 0BD#30C32ED2AEC1
(077.258758) can0 0B9#19
(077.259009) can0 031#F2121473
(077.259375) can0 07F#EF714FBE0070F20E
(077.259711) can0 002#770D89DF
(077.259840) can0 014#01
(077.259950) can0 0B2#63
(077.260327) can0 0B6#81D58038267475BE
(077.260751) can0 0BB#C2557E0367123464
(077.260900) can0 008#00
(077.261249) can0 021#8015E309E4180947
(077.261603) can0 019#5338430FC824
(077.261847) can0 055#00
(077.262199) can0 016#82B9D0E4A8D0
(077.262603) can0 09E#2B78B02CE3FCD7
(077.262981) can0 030#54E2
(077.263102) can0 05B#4B1A
(077.263231) can0 00D#0000
(077.263354) can0 09D#76FD
(077.263715) can0 049#D1
(077.264443) can0 0AB#7B6D52
(077.264770) can0 043#E97006
(077.265128) can0 06E#7FC7353E6AD4BA30
(077.265309) can0 014#01
(077.265506) can0 009#F19BDCE2F7246D
(077.265864) can0 0B3#5A
(077.266198) can0 03B#4AF8AE3EA84B
(077.266712) can0 01B#01E509B6F9E7
(077.266897) can0 008#00
(077.267009) can0 055#00
(077.267109) can0 0BD#18
(077.267933) can0 083#791B9E05
(077.268467) can0 055#CF478D
(077.268885) can0 05B#4B1A
(077.269006) can0 00D#0000
(077.269224) can0 053#AD30C0CD31C2B2AB
(077.269506) can0 004#F030DC
(077.269709) can0 05D#01
(077.269816) can0 007#00
(077.270055) can0 06A#767D3EDEAEE7E331
(077.270238) can0 056#00
(077.270398) can0 05C#3C324A1A
(077.270512) can0 016#00
(077.270627) can0 015#01
(077.270746) can0 016#00
(077.270866) can0 041#00
(077.271024) can0 083#233C5AF2
(077.271168) can0 014#01
(077.271372) can0 09E#E37C43786EF3
(077.271741) can0 0BC#268BFB6C
(077.271857) can0 008#00
(077.271966) can0 055#00
(077.272180) can0 084#25D94B44EA41E0
(077.272409) can0 069#96
(077.272654) can0 092#4750
(077.273041) can0 05B#4B1A
(077.273152) can0 0C1#71A2
(077.273509) can0 0A2#258C65D289DF4E8B
(077.274147) can0 00D#0000
(077.274468) can0 072#EB9E80
(077.274762) can0 04D#40A649
(077.274872) can0 014#01
(077.275084) can0 046#10
(077.275494) can0 025#9E38F963AA490537
(077.275865) can0 086#D91A138AF7A6
(077.275967) can0 008#00
(077.276246) can0 0C6#8DC3
(077.277002) can0 055#00
(077.277100) can0 07C#786EAA
(077.278019) can0 0A8#3726581675E560
(077.278096) can0 05B#4B1A
(077.278249) can0 00D#0000
(077.278420) can0 090#17AF35A7
(077.279131) can0 05B#AA81E69160
(077.279777) can0 065#1D
(077.280034) can0 014#01
(077.280346) can0 09D#088A6D355F
(077.280997) can0 008#00
(077.282201) can0 055#00
(077.282930) can0 05B#4B1A
(077.283030) can0 00D#0000
(077.284381) can0 09E#F42BC6B83AC60D0F
(077.284485) can0 007#00
(077.284594) can0 05D#01
(077.284726) can0 000#447A
(077.284844) can0 014#01
(077.285107) can0 02E#ADA4169DC0
(077.285522) can0 082#B2F42675FFACA4D8
(077.285788) can0 04E#DEB21802
(077.285960) can0 008#00
(077.286082) can0 055#00
(077.286272) can0 083#F8F7D0757946
(077.286606) can0 039#AF5C364D9509AA5B
(077.286924) can0 074#63926819437A
(077.287190) can0 06D#92821C
(077.287519) can0 02A#06982B15
(077.287750) can0 0C1#75
(077.288042) can0 073#9BDEFA4A36
(077.288174) can0 05B#4B1A
(077.288295) can0 00D#0000
(077.288462) can0 070#459F7B63
(077.288828) can0 098#A31F5E82A6AF36
(077.290076) can0 014#01
(077.290437) can0 029#07E3C182
(077.290800) can0 04C#7E340A8B3CE044
(077.290977) can0 008#00
(077.291086) can0 055#00
(077.291190) can0 087#B4
(077.291546) can0 040#3724096A
(077.291983) can0 05B#4B1A
(077.292228) can0 0B0#4B
(077.292566) can0 098#EC9C4592F0C183
(077.292888) can0 0A0#04
(077.293020) can0 00D#0000
(077.293215) can0 028#7FFE7EF6DDB1
(077.293817) can0 041#C0CD520001482B
(077.293974) can0 014#01
(077.294169) can0 004#D2D9195C97D5AD
(077.294390) can0 0B3#4A43
(077.294708) can0 003#0380E7493661E8
(077.295221) can0 008#00
(077.295959) can0 055#00
(077.297171) can0 05B#4B1A
(077.297284) can0 00D#0000
(077.297500) can0 03D#897E9DE41B2547CC
(077.297844) can0 063#D03D46A95251552C
(077.298419) can0 05A#B8D8
(077.298779) can0 01A#ACADB9AEBCAD
(077.299031) can0 03E#2D49
(077.299151) can0 014#01
(077.299325) can0 0A7#1BEBD4910F
(077.299910) can0 008#00
(077.299975) can0 007#00
(077.300149) can0 05C#00000000
(077.300309) can0 02F#FD2DBB72
(077.300440) can0 056#01
(077.300540) can0 015#01
(077.300653) can0 016#00
(077.300816) can0 03E#E085BB39
(077.300968) can0 041#00
(077.301110) can0 05C#3C324A1A
(077.301217) can0 016#00
(077.301340) can0 055#00
(077.301456) can0 05D#01
(077.301689) can0 068#E5B3528A22F54423
(077.302032) can0 081#72F4207B9E0B
(077.302512) can0 014#01
(077.302661) can0 017#6BE7D89A
(077.302956) can0 09E#1DC33623
(077.303183) can0 08F#F9
(077.303527) can0 03C#17D36141CD7A1F17
(077.303647) can0 008#00
(077.303753) can0 0A3#AB34
(077.303972) can0 088#7DC7EB
(077.304214) can0 017#92C5E852
(077.304430) can0 02B#3EF2
(077.304564) can0 055#00
(077.304677) can0 08F#31C0
(077.304951) can0 013#D3D72CC5176C
(077.305216) can0 04C#0259A4D8
(077.305422) can0 019#3F
(077.305734) can0 043#301BE29D
(077.306064) can0 0BA#1BB5FECB9436B359
(077.306273) can0 0C0#F1
(077.306485) can0 08A#65BD
(077.306613) can0 014#01
(077.306778) can0 0AD#1C0D72FF9A
(077.307054) can0 0AA#A6B221EE39
(077.307384) can0 066#724D6A807F658AF9
(077.307540) can0 008#00
(077.307638) can0 055#00
(077.307806) can0 00B#73299D876A
(077.309270) can0 020#AEBE0D287D7B
(077.309603) can0 049#2B866B
(077.309776) can0 014#01
(077.309958) can0 0A5#B061FFF4
(077.310527) can0 080#91
(077.310721) can0 008#00
(077.310816) can0 055#00
(077.311022) can0 044#17382E476A9D7D
(077.312036) can0 0B9#1A7A54DA
(077.312417) can0 062#2ED370F12C
(077.312781) can0 00E#2CCB92C00E78
(077.312919) can0 014#01
(077.313604) can0 02E#B36BAE7F0F4A
(077.313906) can0 008#00
(077.314041) can0 021#054890F1
(077.314390) can0 0C7#65DD61E48A9A3D4C
(077.314770) can0 055#00
(077.315141) can0 09B#6EE60607EBBD44
(077.315307) can0 056#00
(077.315486) can0 099#A4A0
(077.315621) can0 014#01
(077.315835) can0 04C#11B344115F89A1
(077.315960) can0 05D#01
(077.316150) can0 05A#990133E8ECA8
(077.316504) can0 001#F0935B361BE925AA
(077.316637) can0 008#00
(077.316778) can0 03E#6EEFCE53
(077.317136) can0 01F#8E2E0F4DD9D0
(077.317482) can0 0AF#AD3F
(077.317737) can0 036#DCA4
(077.317871) can0 055#00
(077.318006) can0 0AA#9EDB1D
(077.318358) can0 07D#313A2C4F5C468446
(077.318627) can0 0C3#CFBC
(077.318747) can0 05B#4B1A
(077.318878) can0 00D#0000
(077.319103) can0 0B4#DC7A4BBEAD04FB
(077.319397) can0 00D#58C64CBF
(077.320009) can0 05E#7CB110AE0CD1F0
(077.320257) can0 03A#D5
(077.320620) can0 0B6#A76A29F1353B1525
(077.320934) can0 0A4#65D6DE
(077.321083) can0 014#01
(077.321281) can0 016#2F3B5A
(077.321645) can0 049#C2641AD2FFEE84
(077.321956) can0 04B#D26B
(077.322049) can0 008#00
(077.322407) can0 076#A9F3C73C31D2897E
(077.322733) can0 099#2107A094CD
(077.322875) can0 055#00
(077.322997) can0 020#ACA3
(077.323317) can0 005#18C26736E0
(077.323693) can0 09B#F609938B913FE4
(077.324021) can0 064#4DF6
(077.324230) can0 05B#4B1A
(077.324375) can0 092#7E6C1EF582
(077.324520) can0 00D#0000
(077.324737) can0 04E#0C17
(077.325107) can0 093#13FCDD278EC9CCC4
(077.325462) can0 056#D8A8787178B5
(077.325846) can0 0BA#CE137CE59E08290A
(077.325919) can0 014#01
(077.326221) can0 008#7BC0FD
(077.326614) can0 008#00
(077.326713) can0 055#00
(077.326852) can0 013#E4BC
(077.327562) can0 096#F96FB0701197DA
(077.328064) can0 075#C02E
(077.328847) can0 06C#60637A7D4998552C
(077.328946) can0 05B#4B1A
(077.329095) can0 00D#0000
(077.329322) can0 013#549F
(077.329972) can0 0A3#84DA8449
(077.330188) can0 007#00
(077.330276) can0 015#01
(077.330399) can0 016#00
(077.330521) can0 041#00
(077.330631) can0 056#00
(077.330765) can0 014#01
(077.330935) can0 09D#C21AA0A5AD
(077.331580) can0 012#A8FF813DCD9CCD
(077.331641) can0 008#00
(077.331772) can0 055#00
(077.332217) can0 056#EC547CEDABB802
(077.332801) can0 049#B1006B
(077.332970) can0 05B#4B1A
(077.333356) can0 0BE#9CD2
(077.333771) can0 0B1#AA98
(077.333927) can0 00D#0000
(077.334338) can0 07E#5E1F374DED88963F
(077.334644) can0 098#2E3B0B
(077.335110) can0 014#01
(077.335298) can0 0AB#74FC7AACA92737
(077.335692) can0 008#00
(077.335901) can0 0A2#6F178B269AF40E3B
(077.336233) can0 0A8#31
(077.336657) can0 055#00
(077.337196) can0 00F#9EF74EB200
(077.337706) can0 099#0C
(077.338026) can0 05B#4B1A
(077.338136) can0 00D#0000
(077.338348) can0 06D#608515773B3178
(077.338598) can0 02A#6B
(077.339008) can0 0AA#AB019996
(077.339525) can0 0AD#B3E8A15F87827E96
(077.339703) can0 014#01
(077.340022) can0 09C#CA6A58E17BA8
(077.340770) can0 04E#596C2A20CC93
(077.340876) can0 008#00
(077.341255) can0 04D#1095
(077.341818) can0 050#ED65A62E8110
(077.341940) can0 055#00
(077.342344) can0 032#8E4B6AD71A8F4D70
(077.342811) can0 03F#35D9E3
(077.343022) can0 05B#4B1A
(077.343149) can0 00D#0000
(077.343587) can0 056#9C92
(077.344605) can0 032#FC5D7F
(077.344791) can0 014#01
(077.345254) can0 0A2#61176AED8F04
(077.345319) can0 05D#01
(077.345711) can0 008#00
(077.345811) can0 055#00
(077.345967) can0 0AF#ACAD74A54F
(077.346308) can0 03D#9A917D71
(077.346784) can0 005#69
(077.347400) can0 068#7BF0B9
(077.347711) can0 05B#4B1A
(077.347840) can0 00D#0000
(077.347984) can0 04C#38D10E
(077.348651) can0 078#5F920C37F740
(077.349153) can0 07E#9F56EC903B
(077.349681) can0 0C6#6AF3FD4D3C97
(077.349784) can0 014#01
(077.350181) can0 060#9026E7E21F
(077.350551) can0 0A7#A46E
(077.350669) can0 008#00
(077.350772) can0 055#00
(077.351064) can0 021#A0B7A9F865
(077.351580) can0 0A1#4F2E43E059
(077.351702) can0 05B#4B1A
(077.352372) can0 09B#9A2957C7F29F4B
(077.353029) can0 091#993256275EF743
(077.353107) can0 00D#0000
(077.353791) can0 013#C556BF3D3035568C
(077.353872) can0 014#01
(077.354354) can0 0C6#336B
(077.354683) can0 008#00
(077.355049) can0 0B6#7B06FC
(077.355598) can0 0BF#86
(077.356412) can0 081#5BBDFDF677
(077.356486) can0 055#00
(077.357172) can0 0BC#937F69
(077.357294) can0 05B#4B1A
(077.357411) can0 00D#0000
(077.357724) can0 07C#B18648E4DF
(077.358286) can0 09E#43187B6A092CF8
(077.358882) can0 058#C57124BB915BFD9F
(077.359254) can0 014#01
(077.359486) can0 05E#E66CF52FDFF290
(077.360321) can0 03F#E9E658307F978EFC
(077.360412) can0 008#00
(077.360843) can0 09E#F51D3918A8
(077.360943) can0 007#00
(077.361050) can0 015#01
(077.361169) can0 016#00
(077.361293) can0 041#00
(077.361466) can0 055#00
(077.361570) can0 056#00
(077.361700) can0 05C#3C324A1A
(077.361806) can0 016#00
(077.361929) can0 05D#01
(077.362058) can0 063#9CAE
(077.362319) can0 093#90
(077.362668) can0 07E#87A037
(077.362792) can0 05B#4B1A
(077.362925) can0 00D#0000
(077.363387) can0 0B8#1A151B324747
(077.364061) can0 0B6#F8E18947941E9AD3
(077.364741) can0 014#01
(077.364797) can0 00C#5EA086853A10
(077.365184) can0 0A9#C060EB397D1B73
(077.365571) can0 024#5B976F49
(077.365724) can0 008#00
(077.365836) can0 055#00
(077.365952) can0 0AE#64
(077.366476) can0 08C#7FC53B6077B716
(077.366850) can0 08E#BB62EA76F7DB74
(077.367218) can0 0A2#CE5C0E2A83DF1D
(077.367576) can0 023#E324B1
(077.367759) can0 05B#4B1A
(077.367890) can0 00D#0000
(077.367985) can0 091#85
(077.368229) can0 0C0#AC1E
(077.368569) can0 0B8#A4152AE009
(077.369022) can0 0B0#28A3436559
(077.369459) can0 05B#D0D107C45671D0
(077.369876) can0 06D#F495D5F832ECFBBB
(077.369979) can0 014#01
(077.370230) can0 0A2#CA4D3651
(077.370813) can0 0C8#EB949A3892A377F1
(077.370941) can0 008#00
(077.371085) can0 055#00
(077.371261) can0 091#1A6D49B72FEF21
(077.371806) can0 0A8#FB2245783D4F481D
(077.371914) can0 05B#4B1A
(077.372166) can0 05D#CB2FDCEE53
(077.372476) can0 0C1#87548C
(077.372959) can0 021#6CCE65BE7383
(077.373058) can0 00D#0000
(077.373252) can0 0B4#49
(077.373854) can0 01B#99272A989938D832
(077.373916) can0 014#01
(077.374116) can0 00A#97
(077.374651) can0 094#FA51DDFCAA
(077.374784) can0 008#00
(077.375135) can0 0C3#73F5A2401A76
(077.375676) can0 037#C67DB6D219F3F7DE
(077.375829) can0 055#00
(077.376151) can0 068#A63DCB7B
(077.376323) can0 007#00
(077.376429) can0 056#00
(077.376602) can0 003#3E926E1C
(077.376718) can0 05D#01
(077.376901) can0 05B#4B1A
(077.376982) can0 00D#0000
(077.377091) can0 0C0#6A
(077.377364) can0 01B#A2
(077.378008) can0 082#81D14802C2
(077.378418) can0 07F#2E
(077.378740) can0 014#01
(077.379015) can0 063#FB0422DC
(077.379573) can0 0A5#C949964B
(077.379891) can0 008#00
(077.380152) can0 04B#FEB3988A
(077.380772) can0 08A#63B7B5396A
(077.380848) can0 055#00
(077.381180) can0 03F#849B9562EC
(077.381620) can0 01B#62AE963B381140
(077.381823) can0 05B#4B1A
(077.381948) can0 00D#0000
(077.382054) can0 06E#14
(077.382574) can0 02E#A6EA2AFD8B
(077.382928) can0 0A2#51DA9F87C0
(077.383209) can0 020#D818
(077.383462) can0 006#FC77
(077.383750) can0 08A#E021BC69CE
(077.383877) can0 014#01
(077.384135) can0 04F#81FB4F
(077.384505) can0 0B8#4B
(077.384899) can0 008#00
(077.385004) can0 055#00
(077.385217) can0 085#E1317A5C931E64
(077.385550) can0 0B1#54209D732C5463
(077.385899) can0 089#39
(077.386416) can0 071#378B9EDA27
(077.386769) can0 0B6#099439F0
(077.387009) can0 05B#4B1A
(077.387138) can0 00D#0000
(077.387300) can0 0C0#0E141ABD
(077.387675) can0 0BF#6F56C0D837CCE8E2
(077.388093) can0 07E#38796339B9984822
(077.388483) can0 034#C0A760771D
(077.388746) can0 073#1B
(077.388954) can0 014#01
(077.389122) can0 05C#79C9ADDFB3
(077.389403) can0 05D#B34F6BAC
(077.389716) can0 052#349991C876
(077.390023) can0 036#4A3409FF28
(077.390207) can0 008#00
(077.390304) can0 022#FC
(077.390505) can0 055#00
(077.390552) can0 038#1648CF
(077.390836) can0 06D#386F
(077.391125) can0 05B#4B1A
(077.391239) can0 014#2AE7
(077.391603) can0 07C#3B16B49C
(077.391805) can0 00D#0000
(077.391975) can0 021#B776530C
(077.392090) can0 007#00
(077.392200) can0 05D#01
(077.392372) can0 038#9484235FFA
(077.392531) can0 015#01
(077.392607) can0 016#00
(077.392859) can0 00D#FBFCF625BC8AA596
(077.392982) can0 041#00
(077.393129) can0 05C#3C324A1A
(077.393338) can0 073#8D704A4FDB67BA
(077.393483) can0 014#01
(077.393638) can0 025#DE36193C
(077.394041) can0 06F#7DABF9121036
(077.394547) can0 076#839D827D4D6B53
(077.394672) can0 008#00
(077.395022) can0 007#6532EF11E7384EE9
(077.395261) can0 00C#03
(077.395664) can0 01B#DF2EBE8C95E58E94
(077.395716) can0 055#00
(077.396025) can0 093#1C530DEB91F2
(077.396321) can0 003#E134158F1D
(077.396463) can0 05B#4B1A
(077.396589) can0 00D#0000
(077.396780) can0 02A#E37DDDCD62
(077.397445) can0 063#2AA1F9BFB6290603
(077.398066) can0 099#4CA65F7E59
(077.398489) can0 001#A9AA76F2
(077.398614) can0 014#01
(077.398749) can0 03B#CF3B
(077.399157) can0 09A#A81338
(077.399670) can0 04B#337F95939AEA5116
(077.399774) can0 008#00
(077.400165) can0 05B#2A3650439ABEAD
(077.400476) can0 055#00
(077.400697) can0 08B#C450DC126FE2618A
(077.400932) can0 060#73
(077.401537) can0 03D#75C1AA0FAE
(077.401730) can0 05B#4B1A
(077.401772) can0 00D#0000
(077.402051) can0 00F#F8379C3CE7
(077.402548) can0 02C#5A7F268F
(077.403009) can0 058#1C52B7F6
(077.403533) can0 0A3#475B34
(077.403594) can0 014#01
(077.404104) can0 005#393FA85098
(077.404647) can0 008#00
(077.404776) can0 055#00
(077.404931) can0 0B0#69E81C2BFF
(077.405184) can0 05E#CAB2
(077.405848) can0 088#32746BE524D84576
(077.406222) can0 06F#ECED894769
(077.406342) can0 007#00
(077.406442) can0 056#00
(077.406602) can0 016#00
(077.406686) can0 05B#4B1A
(077.406814) can0 05D#01
(077.406944) can0 00D#0000
(077.407148) can0 0A7#8AC0B8030332
(077.407406) can0 0B6#5E26
(077.407757) can0 02A#3F686DF2D8
(077.408153) can0 090#B17AD12F81
(077.408754) can0 06A#8A
(077.408858) can0 014#01
(077.409311) can0 041#EAFA20C6FD4DA0
(077.409777) can0 01F#2A422F87FA
(077.409981) can0 008#00
(077.410082) can0 055#00
(077.410190) can0 036#E1
(077.410697) can0 029#FE1D
(077.410817) can0 05B#4B1A
(077.411057) can0 01F#D1
(077.411494) can0 09B#FFFE9981
(077.412001) can0 06F#DB487505702E9512
(077.412228) can0 00D#0000
(077.412312) can0 08D#9C99
(077.412847) can0 088#2648D42487
(077.412985) can0 014#01
(077.413244) can0 0C6#DD19
(077.413794) can0 030#EDE9BAD0
(077.414138) can0 008#00
(077.414301) can0 082#C0BD30E5FB
(077.414765) can0 054#9D
(077.414876) can0 055#00
(077.415116) can0 08D#F65477
(077.415501) can0 08E#093AFA63
(077.415925) can0 017#0E95BF1334
(077.416275) can0 05B#4B1A
(077.416387) can0 00D#0000
(077.416534) can0 020#721D5C
(077.416971) can0 02F#DDA974
(077.417662) can0 0AC#8FAD97EAAA70
(077.418049) can0 014#01
(077.419191) can0 008#00
(077.419781) can0 03C#92F2C49C
(077.419983) can0 055#00
(077.420082) can0 02D#985D
(077.420369) can0 0AB#12111EB861
(077.420600) can0 056#76
(077.421045) can0 02E#B559244EAD7246E7
(077.421179) can0 05B#4B1A
(077.421282) can0 00D#0000
(077.421475) can0 08C#90
(077.421608) can0 007#00
(077.421714) can0 015#01
(077.421844) can0 016#00
(077.422061) can0 01F#F09987F166F65422
(077.422203) can0 041#00
(077.422301) can0 056#00
(077.422470) can0 05C#3C324A1A
(077.422578) can0 016#00
(077.422700) can0 05D#01
(077.422862) can0 09F#41A2F888
(077.422988) can0 014#01
(077.423224) can0 051#7D1D
(077.423547) can0 07A#28A4FF5F58
(077.423850) can0 0BE#B32E2296
(077.423978) can0 008#00
(077.424097) can0 055#00
(077.424263) can0 073#9277285361
(077.424533) can0 03E#04AF1C
(077.424768) can0 02D#B0
(077.425105) can0 00B#C9CAA79EE89A85A5
(077.425595) can0 017#3175D3
(077.425982) can0 03E#170E0765
(077.426049) can0 05B#4B1A
(077.426193) can0 00D#0000
(077.426283) can0 0C7#B0
(077.426552) can0 05E#0411D2
(077.426832) can0 0AF#2A3D
(077.427068) can0 093#4D
(077.427365) can0 09A#19F5F290
(077.427650) can0 02B#CCEF
(077.427898) can0 023#5F
(077.428100) can0 014#01
(077.428417) can0 013#50E0CC016C0B
(077.428703) can0 0AF#5BED93
(077.428814) can0 008#00
(077.428926) can0 055#00
(077.429037) can0 04F#89
(077.429333) can0 076#9BC6001A6A
(077.429627) can0 082#977CCD
(077.429864) can0 05B#4B1A
(077.430210) can0 03B#D445310CA6
(077.430588) can0 015#1BAC58
(077.430988) can0 09E#99BE277C
(077.431116) can0 00D#0000
(077.431312) can0 060#31
(077.431698) can0 06A#0A
(077.431887) can0 014#01
(077.432092) can0 07B#6F
(077.432509) can0 03C#FC
(077.432886) can0 008#00
(077.433024) can0 06A#C467B65C
(077.433228) can0 08D#28
(077.433573) can0 087#F4D1
(077.433962) can0 014#5A1A5B
(077.434094) can0 055#00
(077.434375) can0 06B#E25506A03F17
(077.434760) can0 066#B13735CDE98CD61A
(077.434883) can0 05B#4B1A
(077.435022) can0 00D#0000
(077.435248) can0 0C7#DDCA5ABEDF16644B
(077.435584) can0 00D#E88EDD5120EC65
(077.435865) can0 04A#4022D68D
(077.436210) can0 092#FDDEAFB34026D668
(077.436444) can0 007#00
(077.436619) can0 085#7ABEBDDC66FC
(077.436747) can0 056#00
(077.436846) can0 014#01
(077.437034) can0 067#AFB2A899E7
(077.437358) can0 0B8#678CAB97CA
(077.437633) can0 064#89
(077.437969) can0 024#2C907EFE8E
(077.438117) can0 008#00
(077.438421) can0 070#6201FD5E
(077.438820) can0 0B5#03C8659346D28B
(077.438937) can0 055#00
(077.439118) can0 065#7FC1FB485B
(077.439400) can0 09E#7DA08B4B
(077.439828) can0 052#61621198F4
(077.440160) can0 000#2D9BABBAAE1D
(077.440288) can0 05B#4B1A
(077.440456) can0 00D#0000
(077.440591) can0 042#AA40DD963A
(077.440877) can0 0B4#30C9D8887B
(077.441113) can0 03C#94DC
(077.441445) can0 09F#C2EBEFAFF68E9F
(077.441741) can0 072#D065
(077.442046) can0 0B3#99E7CC7C26
(077.442219) can0 014#01
(077.442433) can0 040#8FCDFA10BF2F2E
(077.442735) can0 06A#48B02066
(077.442844) can0 008#00
(077.442952) can0 055#00
(077.443263) can0 0AC#E183809327A5
(077.444250) can0 007#E9B65C2328
(077.444507) can0 0C2#F1
(077.444828) can0 028#63D0AEE1
(077.445004) can0 05B#4B1A
(077.445109) can0 00D#0000
(077.445274) can0 015#8311F348
(077.445578) can0 03F#401F
(077.445874) can0 0A2#EA522CDF
(077.446224) can0 01D#1345DB3282F2F2
(077.446489) can0 098#37BB
(077.446773) can0 05E#29D17171
(077.446912) can0 014#01
(077.447119) can0 0B4#BA0606AC2CA9AB
(077.447423) can0 063#3444180488
(077.447797) can0 001#F269650A9234
(077.447894) can0 008#00
(077.448015) can0 055#00
(077.448245) can0 0AF#C357D1A12F13C857
(077.448545) can0 0B7#6311544B7B
(077.448853) can0 05A#95ECFC
(077.449000) can0 05B#4B1A
(077.449312) can0 002#9514D629A067
(077.449652) can0 067#AF8839677B5F
(077.450011) can0 01F#B47B90755B22AB
(077.450162) can0 00D#0000
(077.450244) can0 074#84
(077.450567) can0 0B0#A6EAFF
(077.450863) can0 0BF#94F207
(077.450970) can0 014#01
(077.451205) can0 037#222599
(077.451378) can0 015#01
(077.451507) can0 007#00
(077.451603) can0 016#00
(077.451752) can0 041#00
(077.451834) can0 046#57
(077.451953) can0 008#00
(077.452078) can0 056#00
(077.452217) can0 0BD#A1E653
(077.452527) can0 09D#390F9A75
(077.452746) can0 05E#EB
(077.452888) can0 055#00
(077.453234) can0 085#DF4A5B2FC4E03CAA
(077.453650) can0 05E#1994B8EF30C0481A
(077.453955) can0 033#281B7B24A2
(077.454086) can0 05B#4B1A
(077.454202) can0 00D#0000
(077.454412) can0 0A8#CF0A17FB019D
(077.454774) can0 096#393C24FE2F6C51
(077.455101) can0 04A#770D2D46
(077.455567) can0 00B#B703
(077.455838) can0 05E#4A73
(077.456245) can0 056#EE8534C3D55678
(077.456366) can0 014#01
(077.456716) can0 0B4#0FD9F8D28B687CE0
(077.456980) can0 0B8#492F
(077.457270) can0 008#00
(077.457464) can0 05A#C8A8B81E572B31
(077.457849) can0 044#12AE8D31023159BB
(077.458195) can0 0BB#9D03B1
(077.458542) can0 08E#CDD214BE42A3
(077.458666) can0 055#00
(077.458902) can0 0B2#2D5693
(077.459174) can0 0A5#13AF36
(077.459293) can0 05B#4B1A
(077.459467) can0 00D#0000
(077.459555) can0 02A#64CC
(077.459764) can0 02F#06
(077.460075) can0 034#A7C33DAFC919
(077.461509) can0 0A1#40562F9CBA67393B
(077.461585) can0 014#01
(077.461955) can0 024#ED117441136517
(077.462311) can0 0A1#A1D935372F624A
(077.462443) can0 008#00
(077.462548) can0 055#00
(077.462715) can0 035#C69CA83C59
(077.463040) can0 0AC#8B3387
(077.463367) can0 003#1E0F9B
(077.463722) can0 05B#1F5FB1CA
(077.464041) can0 075#B93D1DE9
(077.464421) can0 05B#4B1A
(077.464560) can0 00D#0000
(077.464707) can0 0AC#FBDD3B
(077.465043) can0 0B1#1063645493A1F2
(077.465413) can0 04C#13A877B4FC8402
(077.465729) can0 07B#A24743
(077.466012) can0 0B4#981B0B
(077.466294) can0 03A#451836
(077.466422) can0 014#01
(077.466549) can0 0B2#F2FF9F
(077.466786) can0 05D#01
(077.467125) can0 02E#04A8A6BBCAE570F3
(077.467370) can0 05C#3C324A1A
(077.467499) can0 008#00
(077.467592) can0 016#00
(077.467724) can0 055#00
(077.467825) can0 015#01
(077.467992) can0 098#99B11220
(077.468126) can0 016#00
(077.468231) can0 041#00
(077.468412) can0 02E#CF8D8B7466
(077.468551) can0 056#00
(077.468661) can0 05B#4B1A
(077.468804) can0 090#60
(077.469150) can0 09F#2C4FE5A8742BC2
(077.469418) can0 020#EF
(077.469575) can0 00D#0000
(077.469707) can0 001#8F1D39
(077.469917) can0 016#33
(077.470253) can0 01C#8C25110F
(077.470442) can0 014#01
(077.470637) can0 00E#C6
(077.471188) can0 0B3#3E6A500345
(077.471370) can0 008#00
(077.471606) can0 095#E1A20C35
(077.472336) can0 055#00
(077.472422) can0 05A#912FFC
(077.473188) can0 04D#742D106C87E3EC71
(077.473618) can0 098#5AB6A9
(077.473738) can0 05B#4B1A
(077.473836) can0 00D#0000
(077.474163) can0 018#1E542F6DFCC8EE
(077.474611) can0 08C#39D465EBA94C6F
(077.474943) can0 0A8#DED9A6
(077.475295) can0 032#6F3419
(077.475681) can0 080#47F58AD1
(077.476025) can0 014#01
(077.476186) can0 03D#3706E7BD13
(077.476417) can0 0AC#0D3672
(077.476906) can0 090#170B8F447D933179
(077.477346) can0 0BE#7684C1339C9FF8D7
(077.477659) can0 0AB#9DEDDB
(077.478211) can0 041#E8E8FADF61EA507A
(077.478288) can0 008#00
(077.478514) can0 000#CE3B
(077.479067) can0 0B8#6EF0993AB735
(077.479522) can0 0A5#39C5B8
(077.479919) can0 055#00
(077.480104) can0 00C#F15288BE9D0D7F
(077.480625) can0 076#982B2D4F37B829
(077.480805) can0 05B#4B1A
(077.480930) can0 00D#0000
(077.481061) can0 08E#D5BA
(077.481497) can0 0BB#0F
(077.482053) can0 06A#EDF9
(077.482569) can0 03D#ADBA
(077.482714) can0 014#01
(077.482833) can0 007#00
(077.482944) can0 056#00
(077.483070) can0 05D#01
(077.483172) can0 065#B9
(077.483808) can0 073#20D8BC15576270
(077.483884) can0 008#00
(077.484020) can0 055#00
(077.484446) can0 09F#FF2463759D01
(077.484843) can0 019#81B9B1D5DB9B85
(077.485345) can0 069#5CF53B28
(077.485833) can0 023#F88C40
(077.485945) can0 05B#4B1A
(077.486076) can0 00D#0000
(077.486360) can0 096#BF62CC3DCCF8
(077.486850) can0 067#374E952450B61F20
(077.487232) can0 07E#4CA9B9AD1680
(077.487721) can0 061#92FF504AAE32A6
(077.488222) can0 04B#85AA4F3E1A
(077.488628) can0 02F#2348
(077.488980) can0 014#01
(077.489202) can0 012#FDC7BF47A4CC90
(077.489771) can0 05E#874B1C0D694E37DC
(077.489845) can0 008#00
(077.489974) can0 055#00
(077.490270) can0 062#0E89C07FBF45
(077.490839) can0 01A#E8DC
(077.490950) can0 05B#4B1A
(077.491414) can0 0BE#AEDF7F4ECB8A
(077.491760) can0 026#37
(077.492064) can0 00D#0000
(077.492352) can0 075#BB73E5930398
(077.492812) can0 06C#0D9E04C62988
(077.492985) can0 014#01
(077.493254) can0 06F#0115796D0B
(077.493578) can0 026#51
(077.493929) can0 051#C98F
(077.494054) can0 008#00
(077.494382) can0 031#D9067BBECD3D07D5
(077.494695) can0 044#89771FB5B9
(077.495014) can0 050#8473E42A104A
(077.495127) can0 055#00
(077.495260) can0 078#EE82
(077.495539) can0 030#9700E48D
(077.495908) can0 05B#BBAB1441D46047
(077.496028) can0 05B#4B1A
(077.496147) can0 00D#0000
(077.496372) can0 053#2C7A
(077.497399) can0 015#01
(077.497459) can0 007#00
(077.497563) can0 016#00
(077.497661) can0 041#00
(077.497820) can0 05C#3C324A1A
(077.497961) can0 014#01
(077.498058) can0 016#00
(077.498178) can0 05D#01
(077.498299) can0 056#00
(077.499095) can0 008#00
(077.499810) can0 025#9FAD8F
(077.500087) can0 00B#1CF9
(077.500440) can0 007#1036A7619A
(077.500543) can0 055#00
(077.500829) can0 03D#DBAB03868A1F
(077.500969) can0 05B#4B1A
(077.501098) can0 00D#0000
(077.501292) can0 0B9#6CDF9E66D205
(077.501666) can0 00E#9A34344AE043E1E8
(077.501949) can0 070#99AB
(077.502186) can0 00A#DC
(077.502435) can0 046#25B3
(077.503184) can0 014#01
(077.503538) can0 063#49C18F2A67
(077.503841) can0 004#B790EF7F
(077.504015) can0 008#00
(077.504218) can0 084#F019ADAA6F238A
(077.504348) can0 055#00
(077.504835) can0 04A#AD8AE9EDD86D6E
(077.505185) can0 03B#407F4C499E7F
(077.505569) can0 0C7#4616F350
(077.505820) can0 04E#F5
(077.506167) can0 05B#4B1A
(077.506294) can0 00D#0000
(077.506494) can0 006#4C077F2C7D3A
(077.506716) can0 0B1#53
(077.506943) can0 053#90
(077.507202) can0 0AD#9AEF1F
(077.507579) can0 027#9906E8FD3A10BEA3
(077.507885) can0 044#2FBE6A
(077.507995) can0 014#01
(077.509313) can0 008#00
(077.509385) can0 055#00
(077.509688) can0 085#3FA329605C
(077.509889) can0 05B#4B1A
(077.510022) can0 00F#0FB924
(077.510268) can0 055#76BE4A
(077.510554) can0 002#65B6A9A80F
(077.510907) can0 078#6341
(077.511105) can0 00D#0000
(077.511281) can0 079#B293A2FB56
(077.511673) can0 068#E06944266BE0CB69
(077.512037) can0 02D#EBFFDDF38AAF
(077.512152) can0 014#01
(077.512418) can0 028#6A68A511F8
(077.512547) can0 015#01
(077.512641) can0 016#00
(077.512769) can0 041#00
(077.512884) can0 056#00
(077.513004) can0 008#00
(077.513118) can0 007#00
(077.513291) can0 05C#3C324A1A
(077.513401) can0 05D#01
(077.513578) can0 06A#00E62EFB89
(077.513888) can0 001#21DD05A4
(077.514239) can0 034#2AF1E84AEB
(077.514346) can0 055#00
(077.514683) can0 083#5B6668F56AD05EEC
(077.514989) can0 03F#3A13
(077.515231) can0 0BA#E577
(077.515355) can0 05B#4B1A
(077.515513) can0 00D#0000
(077.515667) can0 0AC#EDD2C70957
(077.517294) can0 0B5#0F
(077.517356) can0 014#01
(077.517659) can0 08B#8B403717
(077.517941) can0 09E#AD6CDF
(077.518079) can0 008#00